! Created Tue Apr 16 19:57:07 2013
# ghz S ma R 50
! 2 Port Network Data from SP1.SP block
! freq  magS11  angS11  magS21  angS21  magS12  angS12  magS22  angS22  
!     
              0.01        1.00478723         -1.7521828      0.00507995013         135.915715      0.00510982389         135.397628         1.00503362        -1.71706234
             0.011        1.00395885        -1.84403641      0.00606129232         134.451917      0.00609594733          133.95901         1.00416608        -1.81107979
             0.012        1.00313447        -1.93615604      0.00704172547         133.020511      0.00708116861         132.552382         1.00330252        -1.90535007
             0.013         1.0023191        -2.02816997      0.00802144792         131.610891      0.00806568645         131.167295         1.00244793        -1.99950463
             0.014         1.0014912         -2.1203726      0.00900045634         130.215983       0.0090494968         129.796763          1.0015808        -2.09384006
             0.015        1.00067227        -2.21246286      0.00997897401         128.832308       0.0100328235         128.437357         1.00072263        -2.18805697
             0.016        0.99985326        -2.30462318        0.010957015         127.456847       0.0110156799         127.086092        0.999864363          -2.282339
             0.017       0.999036552        -2.39678951       0.0119346592         126.087815       0.0119981458         125.741201        0.999008388        -2.37662304
             0.018       0.998221049        -2.48893769        0.012911945         124.723875        0.012980259         124.401364        0.998153609        -2.47088564
             0.019       0.997399081        -2.58117126       0.0138888531         123.363851       0.0139619994         123.065414        0.997292359        -2.56523087
              0.02       0.996582361        -2.67343902       0.0148655187         122.007176       0.0149435023         121.732792        0.996436349        -2.65960803
             0.021       0.995768005        -2.76576494        0.015841949         120.653217       0.0159247742          120.40287        0.995582697        -2.75404146
             0.022       0.994949609        -2.85806819       0.0168181252         119.301536       0.0169057954         119.075213        0.994725001        -2.84845058
             0.023       0.994132225        -2.95034011       0.0177941078         117.951842       0.0178866261         117.749535        0.993868311        -2.94282702
             0.024       0.993315043        -3.04268426       0.0187699124         116.603739       0.0188672812         116.425441        0.993011821        -3.03727454
             0.025       0.992499086        -3.13505326       0.0197455818          115.25705        0.019847803         115.102756        0.992156551        -3.13174591
             0.026       0.991671912         -3.2274085       0.0207209397         113.911514       0.0208280135          113.78122        0.991290064        -3.22620268
             0.027       0.990865861        -3.31985902       0.0216966277         112.567129       0.0218085568         112.460833        0.990444691        -3.32075406
             0.028       0.990039667        -3.41219947        0.022671768         111.223652         0.02278855         111.141351        0.989579181        -3.41519471
             0.029       0.989231142        -3.50469012       0.0236472662         109.880992       0.0237689023         109.822685        0.988731329        -3.50978511
              0.03        0.98841495        -3.59714191       0.0246225813         108.539052       0.0247490695         108.504738         0.98787581        -3.60433622
             0.031       0.987587988        -3.68962176       0.0255975609         107.197686       0.0257288974         107.187363        0.987009527        -3.69891497
             0.032        0.98677449        -3.78206825       0.0265729463         105.857029       0.0267091305         105.870697        0.986156699        -3.79346015
             0.033       0.986232142        -3.86786448       0.0275158226         104.932604       0.0276487582         104.951288        0.985585179        -3.88769296
             0.034       0.985905238        -3.94810669       0.0284319191         104.348503        0.028554985         104.356665        0.985237436         -3.9815557
             0.035       0.985570359        -4.02833364       0.0293478149         103.764391       0.0294610126         103.762015         0.98488174        -4.07540125
             0.036       0.985230547        -4.10852433       0.0302634933         103.180324       0.0303668242         103.167396        0.984521132        -4.16920865
             0.037       0.984903605        -4.18880199       0.0311795293         102.596279        0.031272997         102.572784        0.984173404        -4.26310141
             0.038        0.98457309        -4.26907139       0.0320955311         102.012231       0.0321791376          101.97816        0.983822121        -4.35698468
             0.039       0.984252482        -4.34941636       0.0330118401         101.428189        0.033085588         101.383529        0.983480756        -4.45094225
              0.04       0.983921814        -4.42971402       0.0339278116         100.844161        0.033991702         100.788902        0.983129353         -4.5448513
             0.041       0.983595589        -4.51003481       0.0348439379         100.260152        0.034897973         100.194286        0.982782406        -4.63878247
             0.042       0.983265905        -4.59034974       0.0357599567          99.676148       0.0358041382         99.5996665        0.982432018        -4.73270686
             0.043       0.982924679        -4.67059522       0.0366755684         99.0921724        0.036709898         99.0050674        0.982070111        -4.82656102
             0.044       0.982592034        -4.75092869       0.0375915112          98.508167       0.0376159913         98.4104313        0.981716795        -4.92050253
             0.045       0.982268809        -4.83129055       0.0385078631         97.9241883       0.0385224959         97.8158154        0.981372907        -5.01447197
             0.046       0.981934704          -4.911626       0.0394238248         97.3401993       0.0394286122         97.2211832        0.981018161         -5.1084145
             0.047       0.981608589        -4.99199281       0.0403401316          96.756228       0.0403350757         96.6265629        0.980671414        -5.20238796
             0.048       0.981271437        -5.07233698       0.0412560241           96.17224       0.0412411272         96.0319207        0.980313652        -5.29633842
             0.049        0.98094083         -5.1527142       0.0421722486          95.588259       0.0421475129         95.4372807        0.979962444        -5.39032181
              0.05       0.980616727        -5.23311082        0.043088803         95.0042952       0.0430542306         94.8426533         0.97961775        -5.48432441
             0.051       0.980282621        -5.31347693       0.0440049782         94.4203294       0.0439605717         94.2480198        0.979263074        -5.57829639
             0.052       0.979951691        -5.39387344       0.0449213422         93.8363551       0.0448671038         93.6533738        0.978911585        -5.67229868
             0.053       0.979625777        -5.47428548       0.0458379881         93.2523948       0.0457739202         93.0587382        0.978565122        -5.76631644
             0.054       0.979296276        -5.55468831       0.0467545235         92.6684387       0.0466806287         92.4641034         0.97821509        -5.86032492
             0.055       0.978954006        -5.63582576       0.0476676894         92.1055033       0.0475846258         91.8922301        0.977858721        -5.95374314
             0.056       0.978540372        -5.72366204       0.0485522016         91.7317674        0.048465866         91.5252486        0.977488742        -6.04193683
             0.057       0.978129861        -5.81153931       0.0494369663         91.3580099       0.0493473584          91.158245         0.97712188        -6.13017229
             0.058       0.977708644        -5.89938733       0.0503212824         90.9842477       0.0502284031         90.7912364        0.976744314        -6.21837924
             0.059       0.977289034        -5.98723225       0.0512056901         90.6105062       0.0511095392         90.4242481        0.976368353        -6.30658334
              0.06       0.976872942        -6.07508747       0.0520902886         90.2367779       0.0519908657         90.0572726        0.975995906        -6.39479792
             0.061       0.976460291        -6.16296115       0.0529750769         89.8630529       0.0528723816         89.6903002        0.975626897         -6.4830311
             0.062       0.976048702        -6.25086193       0.0538601181          89.489307       0.0537541498         89.3233064        0.975258944        -6.57129263
             0.063       0.975639996        -6.33876921       0.0547453432         89.1155732       0.0546361012         88.9563244        0.974893874        -6.65956081
             0.064        0.97522985        -6.42666974        0.055630496         88.7418498       0.0555179803         88.5893526        0.974527362        -6.74782227
             0.065       0.974812276        -6.51455664       0.0565152762         88.3681219       0.0563994874          88.222376        0.974153424        -6.83607042
             0.066       0.974395443        -6.60245323       0.0574002747         87.9943909       0.0572812118         87.8553959        0.973780224        -6.92432932
             0.067       0.973981415        -6.69035778       0.0582854196         87.6206704       0.0581630821          87.488426        0.973409827        -7.01259609
             0.068       0.973569946        -6.77826995       0.0591706953         87.2469591       0.0590450826         87.1214651        0.973041989        -7.10087033
             0.069       0.973145537        -6.86616715       0.0600554376         86.8732205       0.0599265503         86.7544766         0.97266121        -7.18913104
              0.07        0.97273036        -6.95408873       0.0609407108         86.4994973       0.0608085473         86.3875032         0.97228966        -7.27741594
             0.071       0.972323898        -7.04202928       0.0618264922         86.1257917       0.0616910509         86.0205472        0.971926825        -7.36571953
             0.072       0.971904436        -7.12995605       0.0627117382         85.7520579       0.0625730196         85.6535627        0.971550989        -7.45401087
             0.073       0.971487477        -7.21788259       0.0635970853         85.3783415       0.0634550887         85.2865953        0.971177655        -7.54230164
             0.074       0.971072155        -7.30582042       0.0644825699          85.004626       0.0643372944         84.9196286        0.970805958        -7.63060382
             0.075       0.970656919        -7.39377613       0.0653682609         84.6308956       0.0652197052         84.5526468        0.970434346        -7.71892488
             0.076       0.970244271        -7.48172429       0.0662540544         84.2571881       0.0661022177         84.1856876        0.970065321        -7.80723794
             0.077       0.969831704         -7.5697037       0.0671400459         83.8834529       0.0669849269         83.8187004        0.969696378        -7.89558315
             0.078       0.969337037        -7.67257648       0.0680007092         83.5514025       0.0678437025         83.4902769        0.969256355         -7.9827815
             0.079        0.96879719        -7.78345962       0.0688476311         83.2418155       0.0686894879         83.1826362        0.968777076        -8.06935229
              0.08       0.968266435        -7.89440158       0.0696954073         82.9322092       0.0695361258         82.8749763        0.968306879        -8.15598186
             0.081       0.967739096        -8.00533239       0.0705433184         82.6226394       0.0703828981         82.5673531        0.967840086        -8.24259886
             0.082       0.967200956        -8.11626538       0.0713907259         82.3130484       0.0712291679         82.2597087        0.967362474        -8.32921817
             0.083       0.966665022        -8.22719102       0.0722382136         82.0034857       0.0720755178         81.9520926        0.966887055        -8.41582894
             0.084       0.966129296        -8.33813806       0.0730858629         81.6939149       0.0729220287         81.6444685        0.966411831        -8.50246067
             0.085       0.965594723        -8.44908559       0.0739336369         81.3843592        0.073768664         81.3368595        0.965937744        -8.58909211
             0.086       0.965061168        -8.56003457       0.0747815389         81.0748167       0.0746154269         81.0292638        0.965464662        -8.67572426
             0.087       0.964527783         -8.6710029       0.0756295908          80.765268       0.0754623393         80.7216619        0.964991737        -8.76237518
             0.088       0.963995899        -8.78196917       0.0764777387         80.4557375       0.0763093474         80.4140784        0.964520298        -8.84902319
             0.089       0.963456338        -8.89294006       0.0773254862         80.1461924       0.0771559558         80.1064802        0.964041162        -8.93567529
              0.09       0.962916164        -9.00389375       0.0781730993         79.8366739         0.07800243         79.7989087        0.963561396        -9.02230935
             0.091       0.962383055         -9.1148932       0.0790215218         79.5271408       0.0788497118         79.4913226        0.963088686        -9.10898852
             0.092       0.961853927        -9.22588173         0.07987017         79.2176394       0.0796972186         79.1837682        0.962619944          -9.195656
             0.093       0.961316113         -9.3368834       0.0807183719         78.9081132         0.08054428         78.8761891        0.962142495        -9.28233591
             0.094       0.960778611        -9.44786589       0.0815664885         78.5986164        0.081391256         78.5686394        0.961665341        -9.36899596
             0.095       0.960247718          -9.558901        0.082415415         78.2890949         0.08223904          78.261065        0.961194787        -9.45570779
             0.096       0.959720546        -9.66992883       0.0832645852         77.9795986       0.0830870672         77.9535158        0.960727942        -9.54241174
             0.097         0.9591861        -9.78095464       0.0841133602         77.6700979       0.0839346998         77.6459623        0.960253802        -9.62911277
             0.098       0.958650423        -9.89196312       0.0849619963         77.3606205       0.0847821935          77.338432        0.959778411        -9.71579589
             0.099       0.958114712        -10.0029973       0.0858107846         77.0511274        0.085629839         77.0308861        0.959302971        -9.80250381
               0.1       0.957578318        -10.1139469       0.0866442489         76.7495328       0.0864614896         76.7300465        0.958808892        -9.88832713
             0.101       0.957036549         -10.224529       0.0874160748           76.47953       0.0872288202         76.4560297        0.958237654        -9.97058466
             0.102       0.956494674         -10.335123       0.0881880297         76.2095261       0.0879962801         76.1820117        0.957666293        -10.0528534
             0.103       0.955954227         -10.445706       0.0889600561         75.9395436       0.0887638122         75.9080149        0.957096342        -10.1351108
             0.104       0.955412876         -10.556317       0.0897322635         75.6695418       0.0895315255         75.6339988         0.95652547        -10.2173951
             0.105       0.954873811        -10.6669012       0.0905045005         75.3995764       0.0902992691         75.3600191        0.955956865         -10.299653
             0.106       0.954332733        -10.7775331       0.0912769487         75.1295739       0.0910672241          75.086002        0.955386229        -10.3819568
             0.107       0.953793711        -10.8881412       0.0920494358          74.859604       0.0918352187         74.8120176         0.95481763        -10.4642371
             0.108       0.953254096        -10.9987769       0.0928220756         74.5896164       0.0926033663         74.5380154        0.954248419        -10.5465439
             0.109       0.952715161        -11.1094148       0.0935948131         74.3196354       0.0933716123         74.2640197         0.95367987        -10.6288525
              0.11       0.952174669        -11.2200438       0.0943674074         74.0496666       0.0941397161         73.9900362        0.953109743         -10.711152
             0.111       0.951627749        -11.3306881       0.0951396148         73.7796807       0.0949074348         73.7160356        0.952533165        -10.7934653
             0.112       0.951082834        -11.4413072       0.0959118498         73.5097269        0.095675182         73.4420669        0.951958572        -10.8757541
             0.113       0.950543377        -11.5519764       0.0966849791         73.2397481        0.096443822         73.1680733        0.951389424        -10.9580909
             0.114       0.950006266        -11.6626304       0.0974582597          72.969793       0.0972126138         72.8941034        0.950822602        -11.0404129
             0.115       0.949466034        -11.7732872       0.0982313185         72.6998381       0.0979811852         72.6201337        0.950252637         -11.122737
             0.116        0.94892083        -11.8839581       0.0990040543         72.4298714       0.0987494354         72.3461521        0.949677679        -11.2050739
             0.117       0.948377465        -11.9946047       0.0997768255         72.1599342       0.0995177217         72.0722001        0.949104539        -11.2873874
             0.118        0.94783228        -12.1053023        0.100549774         71.8899617        0.100286186         71.7982128         0.94852956        -11.3697493
             0.119       0.947288482        -12.2159842        0.101322777         71.6200107        0.101054705          71.524247        0.947955948        -11.4520962
              0.12       0.946747667        -12.3266686        0.102096143         71.3500681        0.101823588         71.2502896          0.9473853        -11.5344451
             0.121       0.946211022        -12.4373834        0.102870213         71.0801129        0.102593173         70.9763196        0.946818805        -11.6168226
             0.122       0.945676054        -12.5480745        0.103644338         70.8101847        0.103362814         70.7023768        0.946253966        -11.6991774
             0.123        0.94517265        -12.6350479        0.104357631         70.5634077        0.104083823         70.4567173        0.945696651        -11.7799939
             0.124       0.944680061         -12.714105        0.105050627          70.324357        0.104788601         70.2204952        0.945142143        -11.8602883
