! Created Tue Apr 16 19:47:18 2013
# ghz S ma R 50
! 2 Port Network Data from SP1.SP block
! freq  magS11  angS11  magS21  angS21  magS12  angS12  magS22  angS22  
!     
              0.01        1.00271082        -1.64071154      0.00346885139         121.535587      0.00350507561          122.12368         1.00256607         -1.6270823
             0.011        1.00144509        -1.70238408      0.00394438557         119.339511      0.00397932876         119.903388         1.00131351        -1.68959582
             0.012        1.00018399         -1.7643251      0.00441946507         117.162364      0.00445312529         117.701428         1.00006551        -1.75237564
             0.013       0.998932328        -1.82615963       0.0048942069         114.999334      0.00492658143         115.513181        0.998826866        -1.81504731
             0.014       0.997668536         -1.8881771      0.00536861584         112.846304      0.00539970114         113.334646        0.997576041        -1.87790063
             0.015       0.996413961         -1.9500763      0.00584284504         110.701488       0.0058726382         111.164109         0.99633439         -1.9406347
             0.016       0.995159515        -2.01203709      0.00631692473         108.562857      0.00634542304         108.999594        0.995092831        -2.00342959
             0.017       0.993907538        -2.07399432      0.00679092851         106.429258      0.00681812995          106.83998        0.993853712        -2.06622032
             0.018       0.992656908        -2.13592269       0.0072649084          104.29978      0.00729081166         104.684383        0.992615917         -2.1289817
             0.019       0.991399972        -2.19792318      0.00773888387         102.173523      0.00776348844         102.531921        0.991371796        -2.19181482
              0.02       0.990148376        -2.25994604      0.00821296714         100.050167      0.00823627369         100.382288        0.990132997           -2.25467
             0.021       0.988899244        -2.32201434      0.00868719605         97.9292452      0.00870920623         98.2350312        0.988896647        -2.31757036
             0.022       0.987646199        -2.38404472      0.00916159152         95.8104318        0.009182308         96.0898328         0.98765637        -2.38043263
             0.023       0.986394272        -2.44602975      0.00963622482         93.6935703      0.00965565145         93.9465451        0.986417201         -2.4432494
             0.024       0.985142667        -2.50807255       0.0101111399         91.5783627       0.0101292816         91.8048772        0.985178343        -2.50612382
             0.025       0.983892402        -2.57012566       0.0105863947         89.4647213       0.0106032578         89.6647478        0.983940816        -2.56900845
             0.026       0.982631147        -2.63214762       0.0110619263         87.3524441       0.0110775179         87.5259604        0.982692291        -2.63186191
             0.027       0.981390941        -2.69425142       0.0115381144         85.2416275       0.0115524431         85.3886166        0.981464808        -2.69479714
             0.028       0.980130977        -2.75622938       0.0120145272          83.132099       0.0120276024         83.2525486         0.98021756        -2.75760652
             0.029       0.978888641         -2.8183433       0.0124916749         81.0238255       0.0125035075         81.1177278        0.978987936        -2.82055184
              0.03       0.977638892        -2.88040181       0.0129693018         78.9167673       0.0129799035         78.9841184        0.977750892        -2.88344179
             0.031       0.976378723        -2.94247428       0.0134473657         76.8108613       0.0134567491         76.8516615        0.976503422        -2.94634571
             0.032       0.975132033        -3.00449784       0.0139262767         74.7062721       0.0139344559         74.7205252        0.975269429        -3.00920077
             0.033       0.974294051         -3.0549252       0.0142767688         73.2721679       0.0142853977         73.2785559        0.974434165        -3.05959991
             0.034       0.973783989        -3.09575868       0.0145219047         72.3856122       0.0145323258         72.3994228        0.973918663         -3.0997021
             0.035       0.973266028        -3.13657394       0.0147671977         71.4985693       0.0147794081         71.5198102        0.973395262        -3.13978651
             0.036       0.972743216        -3.17735337       0.0150126506          70.611164       0.0150266473         70.6398423        0.972867011        -3.17983547
             0.037         0.9722331        -3.21822062       0.0152585468         69.7234096        0.015274327         69.7595319        0.972351459        -3.21997259
             0.038       0.971719434        -3.25907511       0.0155046821         68.8352981       0.0155222429         68.8788702        0.971832359        -3.26009731
             0.039       0.971215548        -3.30000548       0.0157512296         67.9468983       0.0157705679         67.9979256        0.971323041        -3.30029821
              0.04       0.970701769        -3.34088689       0.0159978815          67.058249        0.016018994         67.1167362         0.97080383        -3.34045047
             0.041       0.970192388        -3.38179062        0.016244874         66.1693882       0.0162677574         66.2353397        0.970289017        -3.38062531
             0.042       0.969679625        -3.42268673       0.0164920855         65.2803293       0.0165167365         65.3537487        0.969770823        -3.42079281
             0.043       0.969155527        -3.46351078       0.0167393833         64.3911219       0.0167657981         64.4720125        0.969241293        -3.46088851
             0.044       0.968639908         -3.5044216       0.0169871082         63.5017388       0.0170152834         63.5901032        0.968720244        -3.50107122
             0.045       0.968133587        -3.54535892       0.0172352913         62.6122587       0.0172652238         62.7080992        0.968208493        -3.54128067
             0.046       0.967616597        -3.58626725       0.0174835792         61.7226702       0.0175152648         61.8259886        0.967686073        -3.58146136
             0.047       0.967107512        -3.62720609       0.0177323024         60.8330288       0.0177657377         60.9438262        0.967171559        -3.62167277
             0.048       0.966587616        -3.66811966       0.0179811295         59.9433189       0.0180163102         60.0615961        0.966646232        -3.66185913
             0.049       0.966074196        -3.70906409       0.0182303878         59.0535834       0.0182673103         59.1793407        0.966127383        -3.70207655
              0.05        0.96556722        -3.75002662       0.0184800779         58.1638571       0.0185187384         58.2970944        0.965614977        -3.74231226
             0.051       0.965050462        -3.79095603       0.0187298988         57.2741373        0.018770293          57.414854        0.965092788        -3.78251504
             0.052       0.964536881        -3.83191453       0.0189800974         56.3844396       0.0190222213         56.5326348        0.964573777         -3.8227471
             0.053       0.964028288        -3.87288766       0.0192307146          55.494805       0.0192745642         55.6504773        0.964059753        -3.86299397
             0.054       0.963516234        -3.91385024       0.0194815886         54.6052399       0.0195271596         54.7683875        0.963542267        -3.90323048
             0.055       0.963023851        -3.95442134       0.0197214649          53.761895       0.0197688861         53.9320675        0.963043183        -3.94309797
             0.056       0.962750723        -3.99156608        0.019860503         53.3337797       0.0199109717         53.5069443        0.962751942        -3.97974005
             0.057       0.962480605        -4.02874858       0.0199997736         52.9055243       0.0200532884         53.0816844        0.962463711        -4.01642016
             0.058       0.962199919        -4.06589772       0.0201389938         52.4771544       0.0201955525         52.6563131        0.962164915        -4.05306715
             0.059       0.961920782        -4.10304361        0.020278389         52.0487135         0.02033799         52.2308738        0.961867668        -4.08971113
              0.06       0.961645077         -4.1402001       0.0204179971         51.6202032        0.020480639         51.8053681        0.961573853        -4.12636594
             0.061       0.961372731        -4.17737566       0.0205578162          51.191622       0.0206234977         51.3797943        0.961283399        -4.16304006
             0.062       0.961101369        -4.21457066       0.0206978512          50.762934       0.0207665709         50.9541164        0.960993929        -4.19973385
             0.063       0.960832826        -4.25177232       0.0208380896         50.3341978        0.020909846         50.5283927        0.960707278        -4.23643451
             0.064       0.960562858          -4.288968       0.0209784352         49.9054195       0.0210532267         50.1026292        0.960419202        -4.27312941
             0.065       0.960285571        -4.32614837       0.0211187732         49.4765849       0.0211965976         49.6768118        0.960123809        -4.30980922
             0.066       0.960008969        -4.36333126       0.0212593129         49.0476916       0.0213401688         49.2509377        0.959829101        -4.34649176
             0.067       0.959735124        -4.40052399       0.0214000448         48.6187767       0.0214839308         48.8250441         0.95953715        -4.38318434
             0.068       0.959463799        -4.43772669        0.021540963         48.1898449       0.0216278776         48.3991354        0.959247718         -4.4198871
             0.069       0.959179702        -4.47490314       0.0216818023         47.7608424       0.0217717428         47.9731576        0.958945517         -4.4565638
              0.07       0.958904689        -4.51210684       0.0218229731         47.3318409       0.0219159388         47.5471826        0.958652399        -4.49326797
             0.071        0.95863826        -4.54933319       0.0219644648         46.9028485       0.0220604548         47.1212179        0.958367863        -4.52999498
             0.072       0.958359003        -4.58653322       0.0221058776         46.4738002       0.0222048894         46.6951989          0.9580705        -4.56669586
             0.073       0.958082223        -4.62373701       0.0222474692         46.0447705       0.0223495011         46.2691996        0.957775614        -4.60340069
             0.074       0.957807055        -4.66095209       0.0223892439         45.6157415       0.0224942945         45.8432022         0.95748234        -4.64011701
             0.075       0.957531953        -4.69817715       0.0225312095         45.1866925       0.0226392773         45.4171857         0.95718913         -4.6768435
             0.076       0.957259418        -4.73539979       0.0226733547         44.7576818       0.0227844383         44.9912083        0.956898488        -4.71356776
             0.077       0.956986951        -4.77264651        0.022815688         44.3286483        0.022929786         44.5652089        0.956607912        -4.75031628
             0.078       0.956774033        -4.81155255       0.0229249625         44.0265609       0.0230361515          44.258632        0.956398472        -4.78752136
             0.079       0.956592203          -4.851343        0.023016409         43.7928219       0.0231215024         44.0163429         0.95623174        -4.82496325
              0.08       0.956419285         -4.8911819        0.023108185         43.5590345       0.0232071871         43.7739944        0.956073911        -4.86245371
             0.081       0.956249729        -4.93101506       0.0232000784         43.3252708       0.0232929926         43.5316587        0.955919439        -4.89993858
             0.082       0.956069481        -4.97083605       0.0232918456         43.0914573        0.023378674         43.2892627        0.955754275        -4.93741135
             0.083       0.955891398        -5.01065318       0.0233837104         42.8576616       0.0234644564         43.0468741         0.95559127        -4.97488041
             0.084       0.955713489         -5.0504841       0.0234756779         42.6238411       0.0235503448         42.8044506        0.955428435        -5.01236337
             0.085       0.955536699        -5.09031338       0.0235677454         42.3900254       0.0236363363          42.562022        0.955266713        -5.04984481
             0.086       0.955360895        -5.13014152       0.0236599121         42.1562143       0.0237224303         42.3195882        0.955105975        -5.08732524
             0.087       0.955185237        -5.16998215       0.0237521766         41.9223875       0.0238086255         42.0771293        0.954945377        -5.12481825
             0.088       0.955011049        -5.20982201       0.0238445357         41.6885762       0.0238949183         41.8346765        0.954786246        -5.16231063
             0.089       0.954829252         -5.2496557       0.0239368156         41.4547425       0.0239811348         41.5921923        0.954619503        -5.19979692
              0.09       0.954646836        -5.28947618       0.0240291255         41.2209369       0.0240673846         41.3497272        0.954452138        -5.23727014
             0.091       0.954471381        -5.32933038       0.0241217246         40.9871144       0.0241539271         41.1072366        0.954291728        -5.27477716
             0.092       0.954299859        -5.36917954       0.0242144629          40.753329       0.0242406122         40.8647747        0.954135248        -5.31227931
             0.093       0.954119723        -5.40902791       0.0243071054         40.5195179       0.0243272044         40.6222788        0.953970152        -5.34978072
             0.094       0.953939888        -5.44886306       0.0243997951         40.2857439       0.0244138471         40.3798118        0.953805352        -5.38726906
             0.095       0.953766581        -5.48873834       0.0244927658          40.051951       0.0245007743          40.137318        0.953647076        -5.42479761
             0.096       0.953596956        -5.52861148       0.0245858765         39.8181938       0.0245878446         39.8948523         0.95349248        -5.46232417
             0.097       0.953420114        -5.56847104       0.0246789128         39.5844385       0.0246748438          39.652381        0.953330663        -5.49983722
             0.098       0.953242043        -5.60831559       0.0247719737         39.3507179       0.0247618709          39.409937        0.953167614         -5.5373354
             0.099       0.953063929        -5.64817819       0.0248651279         39.1169935       0.0248489946         39.1674821         0.95300452        -5.57485172
               0.1         0.9529018        -5.68857612       0.0249430823         38.9083689       0.0249219097          38.952401        0.952852556        -5.61155918
             0.101       0.952800998        -5.73108859       0.0249599361         38.8000707       0.0249376761         38.8467678        0.952742514        -5.64500426
             0.102       0.952700072        -5.77360533       0.0249768353         38.6917382       0.0249534871            38.7411        0.952632336        -5.67845398
             0.103       0.952600546        -5.81611425       0.0249937803         38.5833955        0.024969343          38.635422        0.952523546        -5.71189632
             0.104        0.95250011        -5.85863682       0.0250107734         38.4750033       0.0249852463         38.5296942        0.952413837        -5.74535258
             0.105       0.952401925        -5.90114296       0.0250278103         38.3666177       0.0250011923         38.4239728        0.952306368        -5.77879293
             0.106       0.952301731        -5.94367495        0.025044891         38.2581668       0.0250171814          38.318186         0.95219688        -5.81225928
             0.107       0.952203564         -5.9861922       0.0250620148         38.1497203       0.0250332127         38.2124034        0.952089408         -5.8457114
             0.108       0.952104798        -6.02872581       0.0250791816           38.04123       0.0250492861         38.1065767        0.951981327         -5.8791801
             0.109       0.952006696        -6.07126043        0.025096391         37.9327204       0.0250654011         38.0007305        0.951873902        -5.91265019
              0.11       0.951907029        -6.11378624       0.0251135805         37.8241969       0.0250814956         37.8948702        0.951764901        -5.94611184
             0.111        0.95180095         -6.1563135       0.0251306676         37.7156321       0.0250974869         37.7889684        0.951649479        -5.97957508
             0.112       0.951696842        -6.19882543       0.0251477962         37.6070739       0.0251135189          37.683073        0.951536019        -6.01302353
             0.113       0.951598184        -6.24136852       0.0251651486         37.4984734       0.0251297734         37.5771349        0.951427999        -6.04650316
             0.114       0.951501852        -6.28390222       0.0251825649         37.3898734        0.025146091         37.4711972        0.951322295        -6.07997387
             0.115       0.951402394        -6.32643411       0.0251999349         37.2812514       0.0251623616         37.3652371        0.951213457        -6.11344304
             0.116       0.951297963        -6.36896991       0.0252172267         37.1725969       0.0251785532         37.2592443        0.951099639        -6.14691625
             0.117       0.951195345        -6.41149081       0.0252345592         37.0639492       0.0251947846          37.153258        0.950987623        -6.18037511
             0.118       0.951090911        -6.45404213       0.0252519264         36.9552504       0.0252110499         37.0472204        0.950873784        -6.21386428
             0.119       0.950987842        -6.49658376       0.0252693334         36.8465525       0.0252273539         36.9411833        0.950761301        -6.24734423
              0.12       0.950887752        -6.53912613       0.0252868452         36.7378462       0.0252437619         36.8351375        0.950651788        -6.28082522
             0.121       0.950791853        -6.58168547       0.0253045277          36.629116       0.0252603393         36.7290676        0.950546456        -6.31432321
             0.122       0.950697616         -6.6242302       0.0253222502         36.5203929        0.025276956         36.6230044        0.950442777        -6.34780714
             0.123       0.950612753        -6.66799709       0.0253691362         36.4425354       0.0253237354         36.5449596         0.95038773        -6.38600683
             0.124       0.950531307        -6.71216471       0.0254257421         36.3750147       0.0253805685         36.4763022        0.950349185        -6.42577186
