! Created Tue Apr 16 19:45:53 2013
# ghz S ma R 50
! 2 Port Network Data from SP1.SP block
! freq  magS11  angS11  magS21  angS21  magS12  angS12  magS22  angS22  
!     
              0.01       0.749554695        -1.05238599        0.129926348        -0.22900877        0.128577451       -0.334885063         0.75179552        -1.00681265
             0.011        0.74954401        -1.22187862         0.12979798        0.144107549        0.128462447       0.0460122099        0.751715463        -1.17570524
             0.012       0.749509438        -1.36127486        0.129681291        0.373314004        0.128358972        0.283000674        0.751614186        -1.31516534
             0.013       0.749452042        -1.47737317        0.129577115        0.492398296        0.128267855        0.409867995        0.751492358        -1.43182915
             0.014       0.749354742        -1.57520289        0.129482861        0.523395421        0.128186536        0.448649142        0.751332536        -1.53061673
             0.015       0.749236597        -1.65857786        0.129399856         0.48572301        0.128116329        0.418761718        0.751153503        -1.61525395
             0.016       0.749092683        -1.73034814         0.12932625        0.391837025        0.128055407        0.332661658        0.750950086         -1.6885314
             0.017       0.748927335        -1.79258715        0.129261378        0.251883775        0.128003113        0.200495244        0.750726425         -1.7524763
             0.018       0.748742019         -1.8469014         0.12920429       0.0736282099        0.127958509       0.0300274041        0.750483819        -1.80866002
             0.019       0.748532449        -1.89449888        0.129153573       -0.137713588        0.127920199       -0.173525806        0.750217845        -1.85826528
              0.02       0.748310223         -1.9366198         0.12910962        -0.37602265        0.127888572       -0.404045443        0.749939991        -1.90250726
             0.021       0.748074754        -1.97406366        0.129071533       -0.637581781        0.127862741       -0.657814337        0.749649572        -1.94216878
             0.022       0.747822125        -2.00721987        0.129038276       -0.919981853        0.127841682       -0.932423383         0.74934259        -1.97762753
             0.023       0.747558015        -2.03679875        0.129009774        -1.21980449         0.12782532        -1.22445423        0.749024656        -2.00958036
             0.024       0.747282992        -2.06336014        0.128985504        -1.53494024         0.12781314        -1.53179746        0.748696278        -2.03857768
             0.025        0.74699888        -2.08723684        0.128965238        -1.86350274        0.127804916        -1.85256671         0.74835923        -2.06494451
             0.026       0.746696746        -2.10855918        0.128947318        -2.20453887        0.127799006        -2.18580893        0.748004526        -2.08880603
             0.027       0.746402276        -2.12791238        0.128935346         -2.5560212        0.127798981        -2.52949667        0.747657849        -2.11074004
             0.028       0.746085315        -2.14526375        0.128923653        -2.91672516        0.127799224        -2.88240542         0.74728896        -2.13070944
             0.029       0.745774611        -2.16107946        0.128917088        -3.28604301        0.127804541        -3.24392744        0.746926625        -2.14917659
              0.03       0.745451613        -2.17526459        0.128912217        -3.66320377        0.127811529        -3.61329179        0.746552238         -2.1660436
             0.031       0.745115003        -2.18815642        0.128908161        -4.04698576        0.127819317        -3.98927683        0.746164454        -2.18164368
             0.032        0.74478283        -2.19969747        0.128908289        -4.43733291        0.127831246         -4.3718265        0.745781332        -2.19591794
             0.033       0.744594918        -2.23338121        0.128817376        -4.68407156         0.12773967        -4.61407849        0.745577427        -2.23606859
             0.034       0.744521604          -2.284797        0.128650716        -4.81415267        0.127562167        -4.74238291        0.745516969        -2.29699499
             0.035       0.744440321        -2.33504857        0.128484036        -4.94947895        0.127384646        -4.87593354        0.745448973        -2.35675963
             0.036       0.744353963        -2.38432537        0.128317389        -5.08909052        0.127207162        -5.01377053        0.745376299         -2.4155507
             0.037       0.744275886        -2.43282909        0.128153128        -5.23279645        0.127032045        -5.15570294        0.745312293        -2.47356971
             0.038       0.744193273        -2.48039512        0.127989377        -5.38075417        0.126857437        -5.30188819        0.745244088        -2.53065307
             0.039       0.744116911        -2.52731046        0.127827526        -5.53216865        0.126684714        -5.45153129        0.745182461        -2.58708641
              0.04       0.744031747        -2.57346421        0.127664997        -5.68680791        0.126511321        -5.60440024        0.745112315        -2.64275896
             0.041       0.743948778        -2.61899495        0.127503638        -5.84446558         0.12633909        -5.76028871        0.745044642        -2.69780911
             0.042       0.743862067        -2.66390169        0.127342422        -6.00496258        0.126167004         -5.9190176        0.744973477        -2.75223589
             0.043        0.74376553         -2.7081459         0.12718031        -6.16810092        0.125994031        -6.08038895        0.744892706        -2.80600083
             0.044        0.74367444        -2.75195523        0.127019847        -6.33376181        0.125822694        -6.24428395        0.744817612        -2.85933134
             0.045       0.743589429        -2.79528984        0.126861151        -6.50179164        0.125653109        -6.41054901        0.744748813        -2.91218768
             0.046       0.743495261        -2.83811795        0.126701566        -6.67198826        0.125482646          -6.578982        0.744671033        -2.96453799
             0.047        0.74340631        -2.88055707        0.126543449        -6.84417722        0.125313638        -6.74940846        0.744598664         -3.0164995
             0.048       0.743308188        -2.92254923         0.12638437        -7.01827995        0.125143679        -6.92174984        0.744517277        -3.06801443
             0.049       0.743214149        -2.96418304        0.126226614        -7.19423383        0.124975033        -7.09594352        0.744440136        -3.11917145
              0.05       0.743124311        -3.00548213         0.12607009        -7.37185626        0.124807607        -7.27180689        0.744367356        -3.16999395
             0.051        0.74302618        -3.04639549        0.125912701         -7.5510688        0.124639327        -7.44926156        0.744286408        -3.22043106
             0.052       0.742929815        -3.08702436         0.12575608        -7.73177402        0.124471808        -7.62821008        0.744207364         -3.2705838
             0.053       0.742836655        -3.12737603        0.125600441        -7.91385939        0.124305263        -7.80853992        0.744131658         -3.3204594
             0.054       0.742740216        -3.16743376        0.125444677        -8.09724746        0.124138595        -7.99017365        0.744052787        -3.37004116
             0.055       0.742640422        -3.20842047        0.125280065        -8.27603586        0.123964349         -8.1671527        0.743981624        -3.41948731
             0.056       0.742547784         -3.2600221        0.125038825        -8.40354498        0.123724849        -8.29234724        0.744016225        -3.46996069
             0.057       0.742457097        -3.31139439        0.124798305        -8.53233499        0.123486062        -8.41882302        0.744052681        -3.52019501
             0.058       0.742357907         -3.3624686        0.124556734        -8.66230559        0.123246235        -8.54647975        0.744080519        -3.57012217
             0.059       0.742259779        -3.41333168        0.124315532        -8.79323995        0.123006772        -8.67510061        0.744109338        -3.61982877
              0.06       0.742164196        -3.46401229        0.124074917        -8.92508576         0.12276789        -8.80463328        0.744140629        -3.66934378
             0.061        0.74207113        -3.51453061        0.123834859        -9.05779696         0.12252956        -8.93503171         0.74417437        -3.71868772
             0.062       0.741978263        -3.56482281        0.123595364        -9.19167312        0.122291786        -9.06659547        0.744208228         -3.7677991
             0.063       0.741887495         -3.6149565         0.12335635         -9.3263273        0.122054488        -9.19893761        0.744244124        -3.81674405
             0.064       0.741795597        -3.66492959         0.12311724         -9.4616924        0.121817094        -9.33199107        0.744278824        -3.86552064
             0.065        0.74169789        -3.71471743        0.122877362        -9.59782474         0.12157894        -9.46581217         0.74430763        -3.91410511
             0.066       0.741600242        -3.76430767        0.122637942        -9.73489615         0.12134124        -9.60057271        0.744336426        -3.96248676
             0.067       0.741504756        -3.81378478        0.122398916        -9.87255319        0.121103928        -9.73591929        0.744367338        -4.01074818
             0.068        0.74141127          -3.863156        0.122160237        -10.0107624         0.12086696        -9.87181842        0.744400206        -4.05889677
             0.069       0.741307305        -3.91229069        0.121920388        -10.1499167        0.120628835        -10.0086631        0.744422486        -4.10680535
              0.07       0.741210434        -3.96135592        0.121681706        -10.2895598        0.120391863        -10.1459969        0.744451843        -4.15463789
             0.071       0.741120307        -4.01035431        0.121444099        -10.4296518        0.120155955          -10.28378        0.744487928        -4.20239708
             0.072       0.741019635        -4.05913111        0.121205327        -10.5706217        0.119918894        -10.4224415        0.744513365        -4.24993215
             0.073        0.74092102        -4.10783139        0.120966835        -10.7119725        0.119682109        -10.5614843        0.744540826        -4.29738452
             0.074         0.7408236        -4.15644121        0.120728635        -10.8538131        0.119445614        -10.7010174        0.744569444        -4.34474138
             0.075       0.740725829        -4.20491838        0.120490753        -10.9963359        0.119209433         -10.841233        0.744597664        -4.39196253
             0.076       0.740630237        -4.25332833        0.120253125        -11.1391609        0.118973503        -10.9817513        0.744628037        -4.43911057
             0.077       0.740534343        -4.30163368        0.120015782        -11.2826172        0.118737855        -11.1229013        0.744658065        -4.48615112
             0.078       0.740432172        -4.36212074        0.119760205        -11.4091637        0.118490538         -11.249987        0.744635404        -4.53263634
             0.079       0.740326087        -4.42912895        0.119494639        -11.5267321        0.118236768         -11.369626        0.744583668         -4.5787855
              0.08       0.740226701        -4.49606953        0.119230435        -11.6449089        0.117984348        -11.4898726        0.744538457        -4.62486867
             0.081       0.740130382        -4.56296256        0.118966484        -11.7632777        0.117732179        -11.6103104        0.744496122        -4.67090275
             0.082       0.740025451        -4.62970826        0.118701532        -11.8822684         0.11747902        -11.7313694        0.744444928        -4.71679187
             0.083       0.739922565         -4.6964032        0.118436738        -12.0014776        0.117226019         -11.852646        0.744395595        -4.76262915
             0.084       0.739819737         -4.7630191        0.118172127        -12.1211439          0.1169732        -11.9743789        0.744346138        -4.80838832
             0.085       0.739717913        -4.82956627         0.11790768        -12.2411287        0.116720544        -12.0964295        0.744297508        -4.85407874
             0.086       0.739616967        -4.89604531        0.117643393        -12.3614326        0.116468047        -12.2187982        0.744249588        -4.89970111
             0.087       0.739516082        -4.96245618        0.117379258        -12.4821363        0.116215703         -12.341566        0.744201563        -4.94525598
             0.088       0.739416583        -5.02881829        0.117115257        -12.6030685        0.115963491        -12.4645614        0.744154765        -4.99076161
             0.089       0.739311006        -5.09508076        0.116850534        -12.7244391        0.115710565        -12.5879943        0.744101699        -5.03616882
              0.09       0.739205285        -5.16129331        0.116585634        -12.8459696        0.115457466        -12.7115862        0.744048326        -5.08152536
             0.091       0.739104714        -5.22745523        0.116321823        -12.9679505        0.115205445        -12.8356276        0.743999998        -5.12683237
             0.092       0.739007573          -5.293586        0.116058353        -13.0900522        0.114953764        -12.9597889        0.743954965        -5.17210732
             0.093        0.73890347        -5.35962315        0.115794098        -13.2125989        0.114701306        -13.0843942        0.743902801        -5.21728998
             0.094       0.738799975        -5.42562119        0.115529749        -13.3352546        0.114448755        -13.2091076        0.743851096        -5.26243273
             0.095       0.738701293        -5.49158362        0.115266417        -13.4583282        0.114197214        -13.3342379        0.743804121        -5.30754079
             0.096       0.738605799        -5.55751877        0.115003417        -13.5815216        0.113946002        -13.4594871        0.743760213        -5.35262092
             0.097       0.738504506        -5.62336512         0.11473975        -13.7050664         0.11369413        -13.5850866        0.743710355        -5.39761309
             0.098       0.738402492        -5.68916315        0.114475882        -13.8287561         0.11344206          -13.71083        0.743659641        -5.44255662
             0.099       0.738300365        -5.75492173        0.114212136        -13.9527479        0.113190112        -13.8368745        0.743608701        -5.48746111
               0.1       0.738177448        -5.82266526        0.113965403        -14.0721325        0.112952216        -13.9570608        0.743509133        -5.53234773
             0.101       0.737969024        -5.89844304        0.113786377          -14.17247        0.112770184        -14.0532001        0.743213016        -5.57725984
             0.102       0.737760503        -5.97417982        0.113607428         -14.273044        0.112588228        -14.1495768        0.742916648         -5.6221348
             0.103       0.737553391        -6.04989011        0.113428551         -14.373707         0.11240634        -14.2460433        0.742621527        -5.66698658
             0.104       0.737345376        -6.12555542        0.113249764        -14.4746847        0.112224542        -14.3428253        0.742325364         -5.7117972
             0.105       0.737139622        -6.20120246        0.113071037        -14.5756563        0.112042801        -14.4396023        0.742031298        -5.75659262
             0.106       0.736931893        -6.27680392        0.112892391        -14.6770227         0.11186114        -14.5367749        0.741735136        -5.80134599
             0.107       0.736726201         -6.3523866        0.112713802        -14.7783959        0.111679535        -14.6339551        0.741440854        -5.84608365
             0.108       0.736519933        -6.42793983        0.112535285        -14.8800234        0.111497999        -14.7313906        0.741145869        -5.89079493
             0.109       0.736314347        -6.50346963         0.11235683        -14.9817795        0.111316523        -14.8289556        0.740851428        -5.93548578
              0.11       0.736107745        -6.57896784        0.112178157        -15.0836432        0.111134831        -14.9266292        0.740555824        -5.98014806
             0.111       0.735895995        -6.65441803         0.11199891        -15.1857633        0.110952569        -15.0245601        0.740254936        -6.02476492
             0.112       0.735686228        -6.72985046        0.111819718        -15.2878799         0.11077036        -15.1224884        0.739955886        -6.06936719
             0.113       0.735480355        -6.80526272        0.111641413        -15.3903043        0.110589028        -15.2207256        0.739660662        -6.11395138
             0.114       0.735276621        -6.88065692        0.111463262        -15.4927648        0.110407849        -15.3189997        0.739367446        -6.15852052
             0.115       0.735070522        -6.95602121        0.111284787        -15.5953696        0.110226347        -15.4174191        0.739071735        -6.20306224
             0.116        0.73486048        -7.03135247        0.111105856        -15.6981721        0.110044392        -15.5160372        0.738771961        -6.24757295
             0.117       0.734652259        -7.10666599        0.110926976        -15.8009724        0.109862487        -15.6146541        0.738473872        -6.29206917
             0.118       0.734442267         -7.1819605        0.110748152        -15.9040706        0.109680637        -15.7135699        0.738173933        -6.33654746
             0.119       0.734233651        -7.25723759         0.11056938        -16.0071989        0.109498837        -15.8125167        0.737875247        -6.38101126
              0.12       0.734027462        -7.33249661         0.11039095        -16.1104292        0.109317374        -15.9115667        0.737578887        -6.42545943
             0.121       0.733824341        -7.40773794        0.110213153        -16.2138678        0.109136537        -16.0108259        0.737285529        -6.46989125
             0.122       0.733622888        -7.48296146        0.110035403        -16.3173055        0.108955745        -16.1100853        0.736993712        -6.51430851
             0.123       0.733721516        -7.53357098        0.109740611          -16.38931        0.108647157        -16.1718304        0.736970651        -6.55548982
             0.124       0.733920474        -7.57595327        0.109406802        -16.4508989        0.108295964        -16.2211367        0.737037509        -6.59557374
