! Created Tue Apr 16 19:45:25 2013
# ghz S ma R 50
! 2 Port Network Data from SP1.SP block
! freq  magS11  angS11  magS21  angS21  magS12  angS12  magS22  angS22  
!     
              0.01       0.749338399        -1.06885457        0.130281584        -0.16133798        0.128860144       -0.268463366         0.75192824       -0.988514352
             0.011       0.749308992        -1.23860667        0.130155572        0.214604704        0.128744453        0.116613173        0.751824689        -1.15772898
             0.012       0.749254952        -1.37823272         0.13004122         0.44674056        0.128640273        0.357883749        0.751700709        -1.29755547
             0.013       0.749177503        -1.49454006        0.129939372        0.568833823        0.128548443        0.489112557        0.751556792        -1.41461814
             0.014       0.749059674        -1.59256304        0.129847442        0.602902112        0.128466405        0.532317182         0.75137537        -1.51382873
             0.015       0.748920622        -1.67612042        0.129766763        0.568351252         0.12839548        0.506903417        0.751175128        -1.59890766
             0.016       0.748755489        -1.74806481        0.129695485          0.4776278        0.128333841        0.425317787        0.750950821        -1.67264142
             0.017       0.748568665        -1.81047166        0.129632945        0.340871016        0.128280832        0.297699522        0.750706533        -1.73705427
             0.018       0.748361655        -1.86494897        0.129578192        0.165840336        0.128235516         0.13180803        0.750443522        -1.79371536
             0.019       0.748130205        -1.91270518        0.129529814      -0.0422531837        0.128196494      -0.0671456641        0.750157332        -1.84380544
              0.02       0.747885946         -1.9549822        0.129488204       -0.277293166         0.12816416       -0.293045211        0.749859419        -1.88853875
             0.021        0.74762831        -1.99258003        0.129452463       -0.535565348        0.128137623       -0.542176376        0.749549079        -1.92869704
             0.022       0.747353395        -2.02588779        0.129421556       -0.814663863         0.12811586       -0.812133323        0.749222296         -1.9646568
             0.023       0.747066899         -2.0556168        0.129395406        -1.11117153        0.128098797         -1.0994989        0.748884664        -1.99711453
             0.024       0.746769403        -2.08232721        0.129373492        -1.42298048        0.128085917        -1.40216526        0.748536679        -2.02662011
             0.025       0.746462739        -2.10635207        0.129355585        -1.74820571        0.128076995        -1.71824744        0.748180105        -2.05349812
             0.026       0.746137988        -2.12782121        0.129340022        -2.08589611        0.128070386        -2.04679436        0.747805949        -2.07787302
             0.027       0.745820828        -2.14732081        0.129330418        -2.43402445        0.128069669        -2.38577881        0.747439879        -2.10032271
             0.028       0.745481137        -2.16481819        0.129321087        -2.79136669        0.128069215        -2.73397678        0.747051658        -2.12080983
             0.029       0.745147642        -2.18077952        0.129316892        -3.15731644        0.128073841        -3.09078192         0.74667004        -2.13979642
              0.03       0.744801811        -2.19510962        0.129314391        -3.53110359        0.128080137        -3.45542413        0.746276417        -2.15718423
             0.031        0.74444234        -2.20814651        0.129312701        -3.91150596         0.12808723         -3.8266813        0.745869443        -2.17330671
             0.032       0.744087256        -2.21983194        0.129315203        -4.29846957        0.128098469        -4.20449942        0.745467165        -2.18810432
             0.033       0.743895703        -2.25338869        0.129230265        -4.54412809        0.128010378        -4.44572596        0.745260191        -2.22885227
             0.034       0.743834474        -2.30444812        0.129072526        -4.67503058        0.127839775          -4.576054        0.745209817        -2.29043096
             0.035       0.743765202        -2.35433443        0.128914766        -4.81119528        0.127669157        -4.71164545        0.745151921        -2.35084212
             0.036       0.743690789        -2.40323847         0.12875704        -4.95165989        0.127498576          -4.851538         0.74508936         -2.4102748
             0.037       0.743624585         -2.4513625        0.128601709        -5.09623252         0.12733037        -4.99553977        0.745035475        -2.46893084
             0.038       0.743553785        -2.49854178        0.128446891        -5.24507034        0.127162675        -5.14380794        0.744977399        -2.52664663
             0.039       0.743489173        -2.54506457        0.128293979        -5.39737636        0.126996871        -5.29554551        0.744925908        -2.58370853
              0.04       0.743415714        -2.59082024        0.128140387        -5.55291774        0.126830397        -5.45051968        0.744865908          -2.640006
             0.041       0.743344398        -2.63594783         0.12798797        -5.71148738        0.126665089        -5.60852332        0.744808387        -2.69567768
             0.042       0.743269299        -2.68044664        0.127835698        -5.87290548        0.126499927        -5.76937665        0.744747381        -2.75072283
             0.043       0.743184336        -2.72427843        0.127682525        -6.03697341        0.126333878        -5.93288107        0.744676778        -2.80510316
             0.044       0.743104776        -2.76767127        0.127531009        -6.20357175         0.12616947        -6.09891712        0.744611855        -2.85904632
             0.045       0.743031252         -2.8105855        0.127381267        -6.37254644         0.12600682        -6.26733076        0.744553231        -2.91251271
             0.046        0.74294854        -2.85298962        0.127230633        -6.54369465         0.12584329         -6.4379192        0.744485632        -2.96547066
             0.047       0.742871011        -2.89500148        0.127081472        -6.71684145         0.12568122        -6.61050747        0.744423446         -3.0180376
             0.048       0.742784284         -2.9365632        0.126931346        -6.89190785        0.125518198        -6.78501661        0.744352248        -3.07015584
             0.049       0.742701606         -2.9777636        0.126782549        -7.06883093        0.125356494        -6.96138371        0.744285299        -3.12191418
              0.05       0.742623099        -3.01862656         0.12663499        -7.24742764        0.125196014        -7.13942569        0.744222712        -3.17333613
             0.051       0.742536278        -3.05910115        0.126486562        -7.42761918        0.125034679         -7.3190638        0.744151963        -3.22437094
             0.052       0.742451196        -3.09928885        0.126338905         -7.6093078        0.124874108        -7.50020027        0.744083119        -3.27511976
             0.053       0.742369295        -3.13919709        0.126192236        -7.79238066        0.124714515        -7.68272228        0.744017615        -3.32558989
             0.054       0.742284094        -3.17880924         0.12604544        -7.97676004        0.124554799        -7.86655209         0.74394895        -3.37576473
             0.055       0.742194778        -3.21924788         0.12588843        -8.15670142        0.124386169        -8.04561654        0.743886081        -3.42576697
             0.056        0.74210592        -3.26939527        0.125642501        -8.28678834         0.12414027        -8.17186933        0.743911742        -3.47647529
             0.057       0.742018973         -3.3193115        0.125397304        -8.41815693        0.123895094        -8.29940439        0.743939254        -3.52694461
             0.058       0.741923492        -3.36892791        0.125151058        -8.55070683         0.12364888        -8.42812141        0.743958145        -3.57710681
             0.059        0.74182904        -3.41833172        0.124905188        -8.68422101        0.123403038        -8.55780333        0.743978013        -3.62704857
              0.06       0.741737101        -3.46755167        0.124659915        -8.81864714        0.123157785        -8.68839784        0.744000351        -3.67679888
             0.061       0.741647648        -3.51660803        0.124415207        -8.95393912         0.12291309        -8.81985884        0.744025136        -3.72637825
             0.062       0.741558363        -3.56543669        0.124171072        -9.09039689         0.12266896        -8.95248628        0.744050033        -3.77572501
             0.063       0.741471149        -3.61410566        0.123927425        -9.22763309        0.122425311        -9.08589281        0.744076965        -3.82490546
             0.064        0.74138278        -3.66261293        0.123683686        -9.36558059        0.122181572        -9.22001132        0.744102699        -3.87391768
             0.065       0.741288581        -3.71093382        0.123439181        -9.50429577        0.121937076         -9.3548982        0.744122538        -3.92273787
             0.066       0.741194414         -3.7590558        0.123195142        -9.64395071        0.121693038        -9.49072552        0.744142364         -3.9713552
             0.067       0.741102387        -3.80706374        0.122951502        -9.78419157        0.121449395        -9.62713945        0.744164303        -4.01985244
             0.068       0.741012338        -3.85496494        0.122708216        -9.92498484        0.121206101         -9.7641065        0.744188196          -4.068237
             0.069       0.740911793        -3.90262833        0.122463759         -10.066724        0.120961649        -9.90202016          0.7442015        -4.11638143
              0.07       0.740818318         -3.9502215        0.122220479        -10.2089522        0.120718359        -10.0404235        0.744221878        -4.16444999
             0.071       0.740731564        -3.99774714        0.121978283        -10.3516294         0.12047614        -10.1792767        0.744248981        -4.21244534
             0.072       0.740634252           -4.04505         0.12173492        -10.4951853        0.120232767        -10.3190093        0.744265435        -4.26021646
             0.073       0.740538979        -4.09227572        0.121491842        -10.6391222        0.119989675        -10.4591237        0.744283912        -4.30790503
             0.074       0.740444883        -4.13941026        0.121249061        -10.7835493        0.119746877        -10.5997289        0.744303544        -4.35549816
             0.075       0.740350419        -4.18641123        0.121006603        -10.9286591        0.119504397        -10.7410177        0.744322775        -4.40295556
             0.076       0.740258117        -4.23334446        0.120764405        -11.0740711        0.119262172        -10.8826095        0.744344157        -4.45034001
             0.077       0.740165498        -4.28017225        0.120522496         -11.220115        0.119020233        -11.0248338        0.744365193        -4.49761693
             0.078       0.740071819        -4.34069293        0.120264794         -11.346815        0.118771826        -11.1504764        0.744340699        -4.54295467
             0.079       0.739977052        -4.40854797        0.119998416        -11.4632272        0.118519768        -11.2673173        0.744290971        -4.58721099
              0.08       0.739888991        -4.47633427        0.119733409        -11.5802495        0.118269064        -11.3847675        0.744247746        -4.63140094
             0.081       0.739804007        -4.54407234        0.119468656        -11.6974648        0.118018612        -11.5024098         0.74420738        -4.67554165
             0.082       0.739710426        -4.61166196          0.1192029        -11.8153036        0.117767169        -11.6206748         0.74415814        -4.71953698
             0.083       0.739618898        -4.67920014        0.118937305        -11.9333619        0.117515885        -11.7391584        0.744110745        -4.76348032
             0.084       0.739527439        -4.74665839        0.118671894        -12.0518786        0.117264784        -11.8580995         0.74406321        -4.80734524
             0.085       0.739436991        -4.81404716        0.118406649        -12.1707149        0.117013848        -11.9773593        0.744016487         -4.8511412
             0.086       0.739347432        -4.88136706        0.118141566        -12.2898714        0.116763071        -12.0969383        0.743970458        -4.89486888
             0.087       0.739257942        -4.94861799        0.117876637        -12.4094289        0.116512448        -12.2169174        0.743924311         -4.9385288
             0.088       0.739169846        -5.01581953        0.117611843        -12.5292159        0.116261959        -12.3371251        0.743879376        -4.98213934
             0.089       0.739075683        -5.08292065        0.117346326        -12.6494423        0.116010755        -12.4577712        0.743828162        -5.02565113
              0.09       0.738981384        -5.14997128        0.117080632        -12.7698295        0.115759376        -12.5785771        0.743776628        -5.06911216
             0.091       0.738892239        -5.21697052        0.116816032        -12.8906682         0.11550908        -12.6998335        0.743730125        -5.11252335
             0.092       0.738806532        -5.28393811        0.116551777        -13.0116285        0.115259125        -12.8212105        0.743686905        -5.15590242
             0.093       0.738713873        -5.35081136        0.116286733        -13.1330348        0.115008392        -12.9430326        0.743636543        -5.19918886
             0.094       0.738621828        -5.41764501        0.116021596        -13.2545508        0.114757566        -13.0649633        0.743586629        -5.24243536
             0.095       0.738534603        -5.48444239        0.115757482        -13.3764857        0.114507752        -13.1873118        0.743541433        -5.28564687
             0.096       0.738450571        -5.55121202        0.115493701        -13.4985411        0.114258269        -13.3097798        0.743499291         -5.3288304
             0.097       0.738360747        -5.61789224        0.115229251        -13.6209488        0.114008124         -13.432599        0.743451191        -5.37192568
             0.098        0.73827021        -5.68452367          0.1149646        -13.7435021        0.113757782        -13.5555627        0.743402225        -5.41497224
             0.099       0.738179564        -5.75111511        0.114700072        -13.8663582        0.113507561        -13.6788282        0.743353024        -5.45797956
               0.1       0.738065706        -5.81956477        0.114451887        -13.9842094        0.113269739        -13.7965044        0.743256937        -5.50142722
             0.101       0.737856621        -5.89554341        0.114268721        -14.0814201        0.113081161        -13.8912075        0.742971305        -5.54673337
             0.102       0.737647442         -5.9714809        0.114085629        -14.1788683        0.112892657        -13.9861493        0.742685426        -5.59200181
             0.103       0.737439673        -6.04739183        0.113902607        -14.2764066        0.112704222        -14.0811822        0.742400797        -5.63724667
             0.104       0.737231003        -6.12325759        0.113719674        -14.3742607        0.112515874        -14.1765321        0.742115131        -5.68244976
             0.105       0.737024597        -6.19910506        0.113536799        -14.4721098        0.112327581         -14.271878        0.741831565        -5.72763735
             0.106       0.736816216        -6.27490673        0.113354003        -14.5703548        0.112139368        -14.3676211        0.741545907        -5.77278223
             0.107       0.736609875         -6.3506896        0.113171262        -14.6686075        0.111951208         -14.463373        0.741262132        -5.81791109
             0.108       0.736402959        -6.42644288        0.112988591        -14.7671156        0.111763116        -14.5593815        0.740977658        -5.86301308
             0.109       0.736196727        -6.50217263        0.112805981        -14.8657533        0.111575084        -14.6555207        0.740693731        -5.90809424
              0.11       0.735989481        -6.57787072         0.11262315        -14.9644997        0.111386833        -14.7517697        0.740408644        -5.95314645
             0.111       0.735777088        -6.65352065         0.11243974        -15.0635035        0.111198009        -14.8482774        0.740118278        -5.99815275
             0.112       0.735566681        -6.72915279        0.112256384        -15.1625046        0.111009238        -14.9447837        0.739829752        -6.04314419
             0.113       0.735360168        -6.80476459        0.112073916        -15.2618149        0.110821344        -15.0416002        0.739545055        -6.08811705
             0.114       0.735155796         -6.8803583        0.111891602         -15.361162        0.110633602        -15.1384549        0.739262368        -6.13307457
             0.115        0.73494906        -6.95592201         0.11170896        -15.4606545        0.110445535        -15.2354561        0.738977189         -6.1780043
             0.116       0.734738383        -7.03145258        0.111525858        -15.5603457        0.110257012        -15.3326573        0.738687951        -6.22290262
             0.117       0.734529528        -7.10696538        0.111342806        -15.6600357        0.110068539        -15.4298585          0.7384004         -6.2677862
             0.118       0.734318903        -7.18245903        0.111159808        -15.7600247        0.109880119          -15.52736        0.738111003        -6.31265141
             0.119       0.734109656        -7.25793522        0.110976861        -15.8600446        0.109691748        -15.6248936         0.73782286        -6.35750186
              0.12       0.733902837        -7.33339328        0.110794255        -15.9601676        0.109503713        -15.7225316        0.737537046        -6.40233637
             0.121       0.733699087        -7.40883354        0.110612283        -16.0604998        0.109316305        -15.8203802        0.737254236        -6.44715416
             0.122       0.733497005        -7.48425596        0.110430356        -16.1608322        0.109128941        -15.9182301         0.73697297        -6.49195717
             0.123       0.733591109        -7.53464191        0.110132723        -16.2304372        0.108828771         -15.979095        0.736945089        -6.53453984
             0.124       0.733784245        -7.57666001        0.109796517        -16.2898615        0.108490992        -16.0276948        0.737002008        -6.57636397
