! Created Tue Apr 16 20:08:48 2013
# ghz S ma R 50
! 2 Port Network Data from SP1.SP block
! freq  magS11  angS11  magS21  angS21  magS12  angS12  magS22  angS22  
!     
               0.1       0.803194122        -17.8491182       0.0168079223        -97.8733115       0.0175698262        -98.2450877        0.797990759        -14.0128609
             0.101        0.80521817        -17.9659751       0.0163044319        -97.4744063       0.0170544731        -97.9335557        0.799893763         -14.185372
             0.102       0.807206963        -18.0918194       0.0158144257        -97.0863621       0.0165528991        -97.6321135        0.801765352        -14.3655946
             0.103       0.809160943        -18.2260101       0.0153375191        -96.7088527       0.0160647146        -97.3403873        0.803605908        -14.5529183
             0.104       0.811080573        -18.3679507       0.0148733359        -96.3415991       0.0155895381        -97.0580478        0.805415831        -14.7467772
             0.105       0.812966341        -18.5170861       0.0144215087        -95.9843684       0.0151269968         -96.784808        0.807195536        -14.9466462
             0.106       0.814818749        -18.6728994       0.0139816789        -95.6369718       0.0146767269        -96.5204217         0.80894545         -15.152038
             0.107       0.816638311        -18.8349095       0.0135534968        -95.2992636       0.0142383734         -96.264682        0.810666012        -15.3625004
             0.108       0.818425553        -19.0026686       0.0131366219        -94.9711405       0.0138115904        -96.0174198        0.812357665        -15.5776142
             0.109       0.820181007        -19.1757593       0.0127307224        -94.6525406       0.0133960409         -95.778503        0.814020859          -15.79699
              0.11        0.82190521        -19.3537933       0.0123354757         -94.343443       0.0129913969        -95.5478353        0.815656047        -16.0202665
             0.111       0.823598703        -19.5364086       0.0119505679        -94.0438678       0.0125973393        -95.3253558        0.817263684        -16.2471085
             0.112       0.825262028        -19.7232681       0.0115756943        -93.7538759       0.0122135577        -95.1110385        0.818844227         -16.477205
             0.113       0.826895726        -19.9140575       0.0112105587        -93.4735698       0.0118397506        -94.9048918        0.820398132        -16.7102673
             0.114       0.828500338        -20.1084844       0.0108548735        -93.2030936       0.0114756252        -94.7069587        0.821925853        -16.9460275
             0.115         0.8300764         -20.306276       0.0105083598        -92.9426345       0.0111208968        -94.5173171        0.823427842        -17.1842371
             0.116       0.831624448        -20.5071781        0.010170747        -92.6924238       0.0107752895        -94.3360798        0.824904551        -17.4246657
             0.117        0.83314501         -20.710954       0.0098417728        -92.4527383       0.0104385354        -94.1633952        0.826356425        -17.6670994
             0.118       0.834638611        -20.9173829      0.00952118307        -92.2239026       0.0101103745        -93.9994487        0.827783905        -17.9113399
             0.119       0.836105769        -21.1262593      0.00920873163        -92.0062913      0.00979055504         -93.844463        0.829187432        -18.1572032
              0.12       0.837546997        -21.3373914      0.00890418021        -91.8003319      0.00947883278        -93.6987003        0.830567436         -18.404519
             0.121         0.8389628        -21.5506007      0.00860729825        -91.6065077      0.00917497116        -93.5624633        0.831924346        -18.6531292
             0.122       0.840353676        -21.7657208      0.00831786279        -91.4253621      0.00887874108         -93.436098        0.833258584        -18.9028876
             0.123       0.841935594        -21.9583228      0.00805644097        -89.3252444      0.00858080958        -91.7016856        0.835002428        -19.2207912
             0.124       0.843559484        -22.1453052      0.00780400713        -86.6164978      0.00828425356        -89.4619544        0.836853774        -19.5594506
             0.125       0.845153266        -22.3347153      0.00755284201         -83.946917      0.00799156667        -87.2612406        0.838667419        -19.8961085
             0.126       0.846717533        -22.5263941      0.00730289495        -81.3172309      0.00770262719        -85.1013823        0.840444222        -20.2307575
             0.127        0.84825287        -22.7201932      0.00705413686        -78.7282933      0.00741733263        -82.9844463        0.842185027        -20.5633948
             0.128       0.849759857        -22.9159735      0.00680655942         -76.181108      0.00713559975        -80.9127687        0.843890657        -20.8940218
             0.129       0.851239065        -23.1136051      0.00656017425         -73.676859      0.00685736457        -78.8890024        0.845561921        -21.2226435
              0.13        0.85269106        -23.3129662      0.00631501215        -71.2169448      0.00658258253        -76.9161741        0.847199611        -21.5492682
             0.131         0.8541164         -23.513943      0.00607112236        -68.8030194      0.00631122881        -74.9977521        0.848804505        -21.8739073
             0.132       0.855515637        -23.7164289      0.00582857188        -66.4370414      0.00604329878        -73.1377281        0.850377363        -22.1965747
             0.133       0.856889314         -23.920324      0.00558744491        -64.1213317      0.00577880869        -71.3407147        0.851918934        -22.5172866
             0.134        0.85823797        -24.1255347      0.00534784234        -61.8586447      0.00551779665        -69.6120651        0.853429949        -22.8360613
             0.135       0.859562132        -24.3319734       0.0051098814        -59.6522545      0.00526032403        -67.9580176        0.854911124        -23.1529187
             0.136       0.860862323        -24.5395579      0.00487369555        -57.5060604      0.00500647727        -66.3858728        0.856363164        -23.4678805
             0.137       0.862139057        -24.7482111      0.00463943445        -55.4247186      0.00475637036        -64.9042105        0.857786756        -23.7809695
             0.138       0.863392839        -24.9578608       0.0044072644        -53.4138064      0.00451014813        -63.5231573        0.859182573        -24.0922096
             0.139       0.864624165        -25.1684391        0.004177369        -51.4800286      0.00426799055        -62.2547166        0.860551274        -24.4016259
              0.14       0.865833523        -25.3798823      0.00394995043        -49.6314807      0.00403011837        -61.1131767        0.861893503        -24.7092441
             0.141       0.867021391        -25.5921309      0.00372523124        -47.8779843       0.0037968006        -60.1156143        0.863209889        -25.0150907
             0.142       0.868188239        -25.8051285      0.00350345721        -46.2315222      0.00356836421        -59.2825136        0.864501046        -25.3191927
             0.143       0.869334526        -26.0188228      0.00328490115        -44.7068034      0.00334520692        -58.6385222        0.865767573        -25.6215775
             0.144       0.870460701        -26.2331641      0.00306986858        -43.3220051      0.00312781388        -58.2133571        0.867010055        -25.9222731
             0.145       0.871563633        -26.4426213      0.00295789012        -41.3421033       0.0030090561        -56.9627409        0.868228215        -26.2120791
             0.146       0.872639468        -26.6401308       0.0030762387        -37.7297428      0.00310362778        -53.3038937        0.869421936         -26.479256
             0.147        0.87369718        -26.8385963      0.00319072212        -34.2141196      0.00319175409        -49.6592214        0.870593945        -26.7456322
             0.148       0.874737136         -27.037965      0.00330142687        -30.7776435      0.00327376783        -46.0189523        0.871744723        -27.0112089
             0.149       0.875759691        -27.2381871      0.00340848272        -27.4059984      0.00335002852        -42.3748806        0.872874738        -27.2759885
              0.15       0.876765191         -27.439216      0.00351205302        -24.0874674      0.00342092036        -38.7200636        0.873984441        -27.5399746
             0.151       0.877753971        -27.6410076      0.00361232738         -20.812419      0.00348685051        -35.0486062        0.875074273        -27.8031718
             0.152        0.87872636        -27.8435205      0.00370951589        -17.5729144      0.00354824761        -31.3555079        0.876144661        -28.0655857
             0.153       0.879682675        -28.0467158      0.00380384467        -14.3624028      0.00360556045        -27.6365582         0.87719602         -28.327223
             0.154       0.880623226        -28.2505569      0.00389555215        -11.1754853      0.00365925644        -23.8882666        0.878228752         -28.588091
             0.155       0.881548317        -28.4550096      0.00398488603        -8.00772839       0.0037098201        -20.1078204        0.879243251        -28.8481979
             0.156       0.882458243        -28.6600418      0.00407210075        -4.85551668      0.00375775116         -16.293062        0.880239898        -29.1075528
             0.157       0.883353294        -28.8656232      0.00415745517        -1.71593475      0.00380356247        -12.4424812        0.881219067        -29.3661652
             0.158       0.884233751        -29.0717258      0.00424121059         1.41332852      0.00384777747        -8.55521812        0.882181121        -29.6240454
             0.159       0.885099892         -29.278323      0.00432362894         4.53405846      0.00389092733        -4.63107056        0.883126415        -29.8812041
              0.16        0.88595199        -29.4853902      0.00440497109         7.64757991      0.00393354754       -0.670504521        0.884055297        -30.1376527
             0.161       0.886790309        -29.6929043      0.00448549525         10.7548125      0.00397617422         3.32533818        0.884968107        -30.3934028
             0.162       0.887615114        -29.9008437      0.00456545553         13.8563182      0.00401933988          7.3546377        0.885865177        -30.6484666
             0.163       0.888426661        -30.1091882      0.00464510049         16.9523433      0.00406356886          11.414903        0.886746832        -30.9028565
             0.164       0.889225204         -30.317919      0.00472467181         20.0428553      0.00410937252         15.5029907        0.887613395        -31.1565853
             0.165       0.890010995        -30.5270186      0.00480440308         23.1275774      0.00415724412         19.6151381        0.888465177        -31.4096659
             0.166       0.890784279        -30.7364705      0.00488451853         26.2060201      0.00420765373         23.7470121        0.889302488        -31.6621114
             0.167         0.8915453        -30.9462594        0.004965232         29.2775103      0.00426104313         27.8937744        0.890125631        -31.9139353
             0.168       0.892270928        -31.1336083      0.00513158493         30.5398216      0.00441645848         29.4299051         0.89086159        -32.0908759
             0.169       0.892981573        -31.3177457      0.00531008189         31.4519633      0.00458689424         30.4604722        0.891573812        -32.2557776
              0.17       0.893681631        -31.5027018       0.0054855093         32.3337849      0.00475450211         31.4495918        0.892275653        -32.4218489
             0.171       0.894371295        -31.6884498      0.00565793146         33.1887926      0.00491932898         32.4024209        0.892967294        -32.5890549
             0.172       0.895050755        -31.8749646      0.00582741485         34.0199693      0.00508142656         33.3232944        0.893648914        -32.7573622
             0.173       0.895720194        -32.0622218       0.0059940274         34.8298677      0.00524085009         34.2158806         0.89432069        -32.9267388
             0.174       0.896379793        -32.2501983      0.00615783783         35.6206847       0.0053976573         35.0833038        0.894982793        -33.0971541
             0.175        0.89702973        -32.4388721      0.00631891526         36.3943203      0.00555190767         35.9282398        0.895635392        -33.2685785
             0.176       0.897670177        -32.6282223      0.00647732881         37.1524258      0.00570366177         36.7529934        0.896278652        -33.4409839
             0.177       0.898301305        -32.8182287      0.00663314731         37.8964426      0.00585298081         37.5595592        0.896912735        -33.6143432
             0.178       0.898923279        -33.0088723      0.00678643911         38.6276339      0.00599992627         38.3496715          0.8975378        -33.7886305
             0.179       0.899536262        -33.2001347      0.00693727186         39.3471111      0.00614455958         39.1248449        0.898154004        -33.9638208
              0.18       0.900140413        -33.3919987      0.00708571239         40.0558554      0.00628694187         39.8864072        0.898761497        -34.1398904
             0.181       0.900735888        -33.5844475      0.00723182661          40.754736      0.00642713381         40.6355271        0.899360431        -34.3168161
             0.182        0.90132284        -33.7774654      0.00737567941         41.4445251      0.00656519546         41.3732365        0.899950952        -34.4945762
             0.183       0.901901418        -33.9710373       0.0075173346         42.1259107       0.0067011861         42.1004495        0.900533203        -34.6731495
             0.184       0.902471769        -34.1651489      0.00765685485         42.7995077       0.0068351642         42.8179784        0.901107325        -34.8525158
             0.185       0.903034036        -34.3597863      0.00779430167         43.4658665       0.0069671873         43.5265472        0.901673457        -35.0326556
             0.186       0.903588358        -34.5549365      0.00792973537         44.1254814      0.00709731199         44.2268024        0.902231732        -35.2135505
             0.187       0.904134874        -34.7505871      0.00806321503          44.778797      0.00722559381         44.9193233        0.902782285        -35.3951825
             0.188       0.904673718        -34.9467263      0.00819479853         45.4262139      0.00735208729         45.6046294        0.903325244        -35.5775344
             0.189       0.905205022        -35.1433427      0.00832454249         46.0680938      0.00747684585         46.2831882        0.903860737          -35.76059
              0.19       0.905730533        -35.3363264      0.00846780459         46.6108461      0.00761343595         46.8592924        0.904343355         -35.929092
             0.191       0.906251237        -35.5237373      0.00863186553         47.0072063      0.00776827905         47.2846961        0.904751938        -36.0758266
             0.192       0.906764849        -35.7117624      0.00879364795         47.3981557      0.00792099255         47.7037987        0.905155503         -36.223811
             0.193       0.907271488        -35.9003886      0.00895320995         47.7840443      0.00807163081         48.1170271         0.90555412        -36.3730181
             0.194       0.907771268        -36.0896029      0.00911060844         48.1651879      0.00822024713         48.5247651        0.905947854        -36.5234214
             0.195       0.908264303        -36.2793934       0.0092658992         48.5418726      0.00836689376         48.9273591        0.906336773        -36.6749956
             0.196       0.908750705        -36.4697482      0.00941913682         48.9143576      0.00851162188         49.3251221        0.906720941        -36.8277159
             0.197       0.909230581        -36.6606563      0.00957037476         49.2828787      0.00865448165          49.718338        0.907100423        -36.9815586
             0.198       0.909704038        -36.8521068      0.00971966534         49.6476506      0.00879552218         50.1072641         0.90747528        -37.1365003
             0.199       0.910171181        -37.0440897      0.00986705978         50.0088689      0.00893479157         50.4921347        0.907845575        -37.2925189
               0.2       0.910632112         -37.236595       0.0100126082         50.3667127      0.00907233687         50.8731633         0.90821137        -37.4495927
             0.201        0.91108693        -37.4296134       0.0101563596         50.7213456      0.00920820417         51.2505448        0.908572723        -37.6077008
             0.202       0.911535734        -37.6231359        0.010298362         51.0729178      0.00934243854         51.6244572        0.908929695        -37.7668227
             0.203       0.911978621        -37.8171538       0.0104386623         51.4215669      0.00947508411         51.9950637        0.909282342         -37.926939
             0.204       0.912415684        -38.0116589       0.0105773064         51.7674196      0.00960618402         52.3625137        0.909630723        -38.0880307
             0.205       0.912847015        -38.2066434       0.0107143392         52.1105923      0.00973578049         52.7269446        0.909974893        -38.2500792
             0.206       0.913272706        -38.4020997       0.0108498046         52.4511921       0.0098639148         53.0884825        0.910314907        -38.4130668
             0.207       0.913692845        -38.5980205       0.0109837456         52.7893181      0.00999062735         53.4472435         0.91065082        -38.5769763
             0.208       0.914107518        -38.7943991       0.0111162041         53.1250615       0.0101159576         53.8033346        0.910982685        -38.7417909
             0.209       0.914516812        -38.9912288       0.0112472212         53.4585065       0.0102399442         54.1568542        0.911310555        -38.9074944
              0.21       0.914920809        -39.1885034       0.0113768372         53.7897311       0.0103626249         54.5078934        0.911634482        -39.0740712
             0.211       0.915319591        -39.3862167       0.0115050911         54.1188073       0.0104840366         54.8565362        0.911954515        -39.2415062
             0.212       0.915713238        -39.5843633       0.0116320215         54.4458019       0.0106042153         55.2028603        0.912270706        -39.4097845
             0.213       0.915965838        -39.7759998       0.0118052241         54.6850867       0.0107776184         55.4927247        0.912497622        -39.6066564
             0.214        0.91620815         -39.967787       0.0119790089         54.9176536        0.010951972         55.7770248        0.912717164        -39.8054165
