! Created Tue Apr 16 20:08:20 2013
# ghz S ma R 50
! 2 Port Network Data from SP1.SP block
! freq  magS11  angS11  magS21  angS21  magS12  angS12  magS22  angS22  
!     
               0.1       0.809399437        -18.9294945       0.0328850311        -85.3490673       0.0405388534        -91.2781312        0.804528114        -14.6563649
             0.101       0.811688147        -19.0703332       0.0329015515        -85.1911537       0.0406118675        -91.2326689        0.806649238        -14.8577921
             0.102       0.813932029        -19.2191043       0.0329123872        -85.0395101       0.0406762224        -91.1933699        0.808730844        -15.0657529
             0.103       0.816131866        -19.3752104         0.03291784        -84.8936497        0.040732347        -91.1597482        0.810773614        -15.2796846
             0.104       0.818288454        -19.5380967       0.0329181977        -84.7531199       0.0407806515        -91.1313513        0.812778235         -15.499067
             0.105       0.820402594        -19.7072483       0.0329137351        -84.6174994       0.0408215282        -91.1077589        0.814745398        -15.7234188
             0.106       0.822475093        -19.8821871       0.0329047138        -84.4863963       0.0408553519        -91.0885799        0.816675794         -15.952295
             0.107       0.824506762        -20.0624689       0.0328913838        -84.3594462       0.0408824809        -91.0734507        0.818570114        -16.1852839
             0.108       0.826498408        -20.2476816       0.0328739831          -84.23631       0.0409032581        -91.0620332        0.820429047         -16.422005
             0.109       0.828450838        -20.4374422       0.0328527391        -84.1166722       0.0409180107        -91.0540131        0.822253276        -16.6621064
              0.11       0.830364852        -20.6313949       0.0328278683        -84.0002392       0.0409270519        -91.0490979        0.824043481        -16.9052625
             0.111       0.832241246        -20.8292094       0.0327995773         -83.886738       0.0409306809        -91.0470161        0.825800333        -17.1511726
             0.112       0.834080805        -21.0305787       0.0327680632        -83.7759145       0.0409291835        -91.0475149        0.827524498        -17.3995585
             0.113       0.835884309        -21.2352176       0.0327335139        -83.6675325       0.0409228331        -91.0503595        0.829216634         -17.650163
             0.114       0.837652525        -21.4428613       0.0326961085        -83.5613722       0.0409118906        -91.0553318        0.830877388        -17.9027488
             0.115       0.839386212        -21.6532637       0.0326560176        -83.4572291       0.0408966055        -91.0622289          0.8325074        -18.1570963
             0.116       0.841086114        -21.8661962       0.0326134042         -83.354913       0.0408772163        -91.0708625        0.834107299        -18.4130029
             0.117       0.842752968        -22.0814465       0.0325684234        -83.2542473       0.0408539506        -91.0810575        0.835677706        -18.6702815
             0.118       0.844387494        -22.2988174       0.0325212231        -83.1550674       0.0408270259        -91.0926516         0.83721923        -18.9287594
             0.119       0.845990401        -22.5181256       0.0324719442        -83.0572205         0.04079665        -91.1054937        0.838732469        -19.1882772
              0.12       0.847562387         -22.739201       0.0324207212        -82.9605646       0.0407630214        -91.1194439        0.840218012        -19.4486882
             0.121       0.849104134        -22.9618858        0.032367682        -82.8649677       0.0407263295        -91.1343723        0.841676436        -19.7098569
             0.122       0.850616311        -23.1860333       0.0323129485         -82.770307       0.0406867553        -91.1501583        0.843108308        -19.9716586
             0.123       0.852378485        -23.4075967       0.0324224539        -82.8399494       0.0408543576        -91.3774486        0.845118997        -20.3137216
             0.124       0.854196621        -23.6292185       0.0325800441        -82.9631966       0.0410820962         -91.674033        0.847284288        -20.6797711
             0.125       0.855977405        -23.8521017       0.0327299269        -83.0852726       0.0412993692        -91.9693791        0.849400769        -21.0428162
             0.126       0.857721743        -24.0761305       0.0328724061        -83.2061344       0.0415065846        -92.2634456        0.851469741        -21.4028903
             0.127       0.859430519        -24.3011974       0.0330077746        -83.3257442       0.0417041356        -92.5561967        0.853492472        -21.7600293
             0.128       0.861104596        -24.5272026       0.0331363148        -83.4440692       0.0418924018        -92.8476016        0.855470192        -22.1142711
             0.129       0.862744816        -24.7540535       0.0332582986        -83.5610813       0.0420717487        -93.1376341        0.857404098        -22.4656555
              0.13       0.864351998        -24.9816641       0.0333739884        -83.6767562        0.042242529        -93.4262721        0.859295354        -22.8142239
             0.131       0.865926943        -25.2099549       0.0334836366        -83.7910739       0.0424050823        -93.7134975        0.861145089        -23.1600189
             0.132       0.867470429        -25.4388518       0.0335874868        -83.9040176       0.0425597362        -93.9992956        0.862954401        -23.5030843
             0.133       0.868983217        -25.6682864       0.0336857732        -84.0155738       0.0427068061        -94.2836551        0.864724359         -23.843465
             0.134       0.870466047        -25.8981953       0.0337787218        -84.1257321       0.0428465962        -94.5665677        0.866455998        -24.1812063
             0.135       0.871919639        -26.1285199         0.03386655        -84.2344847       0.0429793994        -94.8480279        0.868150326        -24.5163544
             0.136       0.873344696        -26.3592058       0.0339494672        -84.3418264       0.0431054978        -95.1280325        0.869808322        -24.8489559
             0.137       0.874741903        -26.5902029       0.0340276752        -84.4477543       0.0432251633        -95.4065809        0.871430937        -25.1790577
             0.138       0.876111926        -26.8214649       0.0341013682        -84.5522674       0.0433386577        -95.6836745        0.873019093        -25.5067068
             0.139       0.877455414         -27.052949       0.0341707333        -84.6553669       0.0434462332        -95.9593167        0.874573689        -25.8319506
              0.14          0.878773         -27.284616       0.0342359503        -84.7570556       0.0435481328        -96.2335124        0.876095595        -26.1548362
             0.141       0.880065298        -27.5164295       0.0342971928        -84.8573377       0.0436445903        -96.5062685        0.877585658        -26.4754108
             0.142        0.88133291        -27.7483562       0.0343546277        -84.9562192        0.043735831        -96.7775931          0.8790447        -26.7937214
             0.143       0.882576418        -27.9803655       0.0344084155        -85.0537072       0.0438220719        -97.0474957        0.880473521        -27.1098149
             0.144       0.883796391        -28.2124293        0.034458711        -85.1498099       0.0439035218        -97.3159871        0.881872894        -27.4237378
             0.145         0.8849752        -28.4455692        0.034568563          -85.33604       0.0440693995        -97.5892157        0.883199444        -27.7314686
             0.146       0.886090025        -28.6810825       0.0348188372        -85.7346913       0.0444340127        -97.8755907        0.884397601        -28.0278538
             0.147       0.887184272        -28.9164666       0.0350613184        -86.1324032       0.0447875317        -98.1609124        0.885572333        -28.3225416
             0.148       0.888258426         -29.151706       0.0352962749        -86.5291687       0.0451303332        -98.4451834        0.886724222        -28.6155662
             0.149       0.889312959        -29.3867867       0.0355239658        -86.9249834       0.0454627813        -98.7284077        0.887853834        -28.9069615
              0.15        0.89034833        -29.6216964       0.0357446414        -87.3198447        0.045785228        -99.0105906        0.888961719        -29.1967613
             0.151       0.891364986        -29.8564241       0.0359585438        -87.7137515       0.0460980135        -99.2917387        0.890048413        -29.4849992
             0.152       0.892363362        -30.0909602       0.0361659066        -88.1067047       0.0464014667        -99.5718596        0.891114434        -29.7717088
             0.153       0.893343881        -30.3252965       0.0363669558        -88.4987064       0.0466959055        -99.8509619        0.892160286        -30.0569232
             0.154       0.894306955        -30.5594259       0.0365619097        -88.8897599       0.0469816373        -100.129055        0.893186459        -30.3406754
             0.155       0.895252983        -30.7933423       0.0367509792          -89.27987       0.0472589592         -100.40615         0.89419343         -30.622998
             0.156       0.896182356        -31.0270406       0.0369343682        -89.6690424       0.0475281584        -100.682256        0.895181661        -30.9039234
             0.157       0.897095452        -31.2605168       0.0371122737        -90.0572837       0.0477895128        -100.957387        0.896151601        -31.1834835
             0.158       0.897992642        -31.4937676       0.0372848862        -90.4446014       0.0480432908        -101.231553        0.897103687          -31.46171
             0.159       0.898874284        -31.7267907       0.0374523896        -90.8310041       0.0482897521        -101.504767        0.898038344        -31.7386341
              0.16       0.899740729        -31.9595844        0.037614962        -91.2165006       0.0485291479        -101.777044        0.898955984        -32.0142869
             0.161       0.900592315        -32.1921477       0.0377727753        -91.6011007       0.0487617209        -102.048395        0.899857008        -32.2886986
             0.162       0.901429376        -32.4244803       0.0379259958        -91.9848147       0.0489877061        -102.318835        0.900741807        -32.5618995
             0.163       0.902252233        -32.6565826       0.0380747841        -92.3676534       0.0492073305        -102.588378        0.901610759        -32.8339192
             0.164       0.903061201        -32.8884553       0.0382192957         -92.749628       0.0494208139        -102.857039        0.902464233        -33.1047869
             0.165       0.903856585        -33.1200999       0.0383596808        -93.1307501       0.0496283688        -103.124831        0.903302586        -33.3745315
             0.166       0.904638683        -33.3515181       0.0384960847        -93.5110319       0.0498302007        -103.391769        0.904126168        -33.6431814
             0.167       0.905407785        -33.5827123       0.0386286478        -93.8904856       0.0500265086        -103.657868        0.904935318        -33.9107646
             0.168       0.906039672        -33.8043525       0.0388943304         -94.462168       0.0503979366        -104.127817        0.905616302        -34.1176651
             0.169       0.906640252        -34.0243085       0.0391780259        -95.0681547       0.0507926899        -104.634051        0.906267077        -34.3143902
              0.17       0.907231951         -34.244241       0.0394555644        -95.6744441       0.0511789061        -105.140516        0.906908289        -34.5115634
             0.171       0.907814963        -34.4641492       0.0397271264        -96.2810172        0.051556837        -105.647198        0.907540147        -34.7091713
             0.172       0.908389476        -34.6840325       0.0399928869        -96.8878564       0.0519267268        -106.154086        0.908162852        -34.9072012
             0.173       0.908955675        -34.9038912       0.0402530158        -97.4949459       0.0522888127        -106.661168          0.9087766        -35.1056414
             0.174       0.909513737        -35.1237256        0.040507678        -98.1022711       0.0526433248        -107.168434        0.909381584        -35.3044809
             0.175       0.910063836        -35.3435367       0.0407570335        -98.7098189       0.0529904865        -107.675874        0.909977989        -35.5037093
             0.176       0.910606141        -35.5633255       0.0410012374        -99.3175773       0.0533305147        -108.183481        0.910565997        -35.7033169
             0.177       0.911140815        -35.7830936       0.0412404405        -99.9255356       0.0536636199        -108.691247        0.911145784        -35.9032947
             0.178       0.911668018        -36.0028428       0.0414747889        -100.533684       0.0539900064        -109.199164        0.911717521        -36.1036343
             0.179       0.912187906        -36.2225751       0.0417044247        -101.142014       0.0543098728        -109.707229        0.912281376        -36.3043278
              0.18       0.912700629         -36.442293       0.0419294857        -101.750518       0.0546234119        -110.215434        0.912837511         -36.505368
             0.181       0.913206334         -36.661999       0.0421501057        -102.359189       0.0549308107        -110.723776        0.913386085        -36.7067481
             0.182       0.913705163        -36.8816958       0.0423664146        -102.968021       0.0552322512        -111.232252         0.91392725        -36.9084617
             0.183       0.914197255        -37.1013865       0.0425785387        -103.577009       0.0555279099        -111.740857        0.914461157        -37.1105031
             0.184       0.914682745        -37.3210743       0.0427866004        -104.186148       0.0558179584        -112.249589        0.914987952        -37.3128668
             0.185       0.915161765        -37.5407625       0.0429907188        -104.795435       0.0561025634        -112.758445        0.915507777        -37.5155479
             0.186       0.915634442        -37.7604547       0.0431910096        -105.404866       0.0563818869        -113.267424        0.916020769        -37.7185418
             0.187       0.916100899        -37.9801546        0.043387585        -106.014439       0.0566560863        -113.776526        0.916527062        -37.9218443
             0.188       0.916561258        -38.1998658       0.0435805543        -106.624152       0.0569253145        -114.285747        0.917026789        -38.1254516
             0.189       0.917015636        -38.4195925       0.0437700236        -107.234003       0.0571897203        -114.795089        0.917520074          -38.32936
              0.19       0.917335022        -38.6372712       0.0439770401        -107.904303       0.0574958181        -115.343534         0.91781706        -38.5222921
             0.191       0.917458992        -38.8519259       0.0442117556        -108.665673       0.0578658924        -115.951043        0.917828505        -38.6989269
             0.192       0.917582962        -39.0666841       0.0444426793        -109.427838       0.0582301056        -116.559335        0.917841772        -38.8763028
             0.193       0.917706909        -39.2815491       0.0446699163        -110.190787       0.0585886235        -117.168398        0.917856801        -39.0544076
             0.194       0.917830811        -39.4965246       0.0448935684         -110.95451        0.058941607        -117.778219        0.917873533        -39.2332301
             0.195       0.917954644        -39.7116144       0.0451137349        -111.718996       0.0592892128        -118.388789         0.91789191        -39.4127592
             0.196       0.918078385        -39.9268221       0.0453305119        -112.484239       0.0596315933        -119.000097        0.917911872        -39.5929845
             0.197        0.91820201        -40.1421518       0.0455439934        -113.250229       0.0599688966        -119.612134        0.917933362        -39.7738961
             0.198       0.918325495        -40.3576075       0.0457542704         -114.01696       0.0603012668        -120.224891        0.917956324        -39.9554845
             0.199       0.918448815        -40.5731931       0.0459614316        -114.784425        0.060628844        -120.838359        0.917980699        -40.1377405
               0.2       0.918571947         -40.788913       0.0461655634        -115.552618       0.0609517649        -121.452531        0.918006431        -40.3206554
             0.201       0.918694866        -41.0047712       0.0463667497        -116.321534       0.0612701621        -122.067399        0.918033464         -40.504221
             0.202       0.918817545        -41.2207721       0.0465650723        -117.091167        0.061584165        -122.682957        0.918061743        -40.6884293
             0.203       0.918939961          -41.43692       0.0467606109        -117.861513       0.0618938995        -123.299198        0.918091211        -40.8732728
             0.204       0.919062086        -41.6532192       0.0469534429        -118.632568       0.0621994881        -123.916116        0.918121814        -41.0587441
             0.205       0.919183896        -41.8696742        0.047143644         -119.40433       0.0625010502        -124.533705        0.918153496        -41.2448365
             0.206       0.919305363        -42.0862893       0.0473312878        -120.176793       0.0627987023        -125.151959        0.918186203        -41.4315433
             0.207       0.919426461        -42.3030689       0.0475164461        -120.949958       0.0630925575        -125.770875         0.91821988        -41.6188582
             0.208       0.919547164        -42.5200177       0.0476991887         -121.72382       0.0633827263        -126.390447        0.918254473        -41.8067751
             0.209       0.919667444        -42.7371399        0.047879584        -122.498378       0.0636693165        -127.010671        0.918289928        -41.9952884
              0.21       0.919787274        -42.9544402       0.0480576984        -123.273631        0.063952433        -127.631543        0.918326191        -42.1843926
             0.211       0.919906626         -43.171923        0.048233597        -124.049578       0.0642321782        -128.253059         0.91836321        -42.3740823
             0.212       0.920025472        -43.3895928        0.048407343        -124.826218       0.0645086518        -128.875216         0.91840093        -42.5643527
             0.213       0.919873684        -43.5954112       0.0484690009        -125.602664       0.0647113065        -129.512306        0.918208709        -42.7745302
             0.214       0.919710613        -43.8009784       0.0485244595        -126.379814       0.0649082866        -130.150925        0.918007867        -42.9860284
