! Created Tue Apr 16 20:07:47 2013
# ghz S ma R 50
! 2 Port Network Data from SP1.SP block
! freq  magS11  angS11  magS21  angS21  magS12  angS12  magS22  angS22  
!     
               0.1       0.804994388        -18.1985768       0.0209699996        -90.2413599        0.023152943        -93.3279372        0.799230124        -14.1800316
             0.101        0.80713259        -18.3158734       0.0206096298        -89.8593972       0.0228467062        -93.1166169        0.801290108        -14.3556977
             0.102       0.809231786        -18.4420915       0.0202574231        -89.4863308       0.0225467036        -92.9132445        0.803313567        -14.5389424
             0.103       0.811292533         -18.576593        0.019913187        -89.1216741       0.0222528152        -92.7173098        0.805301053        -14.7291602
             0.104       0.813315415        -18.7187842       0.0195767305        -88.7649756       0.0219649204        -92.5283377        0.807253129        -14.9257896
             0.105       0.815301029        -18.8681126       0.0192478651        -88.4158166       0.0216828982         -92.345886        0.809170369          -15.12831
             0.106       0.817249989        -19.0240642       0.0189264046        -88.0738083       0.0214066282        -92.1695426        0.811053356        -15.3362384
             0.107       0.819162914        -19.1861604       0.0186121657        -87.7385904         0.02113599        -91.9989239        0.812902673         -15.549127
             0.108       0.821040434        -19.3539558       0.0183049678        -87.4098286       0.0208708643        -91.8336724        0.814718909        -15.7665605
             0.109       0.822883182        -19.5270356       0.0180046336        -87.0872127       0.0206111327         -91.673455        0.816502653        -15.9881537
              0.11       0.824691792        -19.7050138       0.0177109892        -86.7704553       0.0203566779        -91.5179616        0.818254491        -16.2135492
             0.111         0.8264669        -19.8875305       0.0174238637        -86.4592898       0.0201073839        -91.3669029         0.81997501        -16.4424157
             0.112       0.828209139         -20.074251         0.01714309         -86.153469       0.0198631364        -91.2200093         0.82166479        -16.6744456
             0.113       0.829919139        -20.2648632       0.0168685043        -85.8527638       0.0196238225        -91.0770296         0.82332441         -16.909354
             0.114       0.831597527        -20.4590765       0.0165999464         -85.556962       0.0193893311        -90.9377297        0.824954442        -17.1468763
             0.115       0.833244924        -20.6566201       0.0163372598        -85.2658666       0.0191595527        -90.8018909        0.826555451        -17.3867675
             0.116       0.834861945        -20.8572419       0.0160802913        -84.9792954       0.0189343799        -90.6693098        0.828127997        -17.6288002
             0.117       0.836449197        -21.0607068       0.0158288915        -84.6970796       0.0187137071        -90.5397962        0.829672632        -17.8727636
             0.118       0.838007281        -21.2667959       0.0155829145        -84.4190625       0.0184974305         -90.413173        0.831189902        -18.1184625
             0.119       0.839536788        -21.4753053       0.0153422179        -84.1450993       0.0182854483        -90.2892746        0.832680343        -18.3657158
              0.12       0.841038303        -21.6860448        0.015106663        -83.8750558       0.0180776609        -90.1679468        0.834144485        -18.6143559
             0.121       0.842512398        -21.8988375       0.0148761142        -83.6088077       0.0178739705        -90.0490454        0.835582847        -18.8642274
             0.122        0.84395964        -22.1135184       0.0146504397        -83.3462398       0.0176742812        -89.9324358        0.836995941        -19.1151867
             0.123       0.845592342        -22.3169835       0.0144549163        -82.9097551       0.0174639318        -89.7598944        0.838760945        -19.4416469
             0.124       0.847263571        -22.5182034       0.0142713762        -82.4166198       0.0172528478        -89.5692157        0.840613883        -19.7910013
             0.125       0.848902561        -22.7214119       0.0140911049         -81.925783       0.0170458329        -89.3795811        0.842428222        -20.1379958
             0.126       0.850510036        -22.9264661       0.0139140198        -81.4371731       0.0168427922        -89.1909322        0.844204916        -20.4826373
             0.127       0.852086702        -23.1332321       0.0137400398        -80.9507222        0.016643633        -89.0032155        0.845944894        -20.8249365
             0.128       0.853633254        -23.3415847       0.0135690858         -80.466366       0.0164482644         -88.816382         0.84764906        -21.1649069
             0.129       0.855150369        -23.5514071       0.0134010808        -79.9840429       0.0162565972        -88.6303867        0.849318295        -21.5025651
              0.13        0.85663871        -23.7625899       0.0132359491        -79.5036942       0.0160685443        -88.4451882        0.850953456        -21.8379302
             0.131       0.858098925        -23.9750309       0.0130736173        -79.0252634       0.0158840202        -88.2607488        0.852555379        -22.1710238
             0.132       0.859531646        -24.1886347       0.0129140137        -78.5486962       0.0157029414        -88.0770336        0.854124878        -22.5018692
             0.133       0.860937492        -24.4033119       0.0127570682        -78.0739398       0.0155252263        -87.8940106        0.855662744        -22.8304917
             0.134       0.862317068        -24.6189792       0.0126027126        -77.6009432       0.0153507949        -87.7116502        0.857169748        -23.1569182
             0.135       0.863670964        -24.8355588       0.0124508806        -77.1296566       0.0151795691        -87.5299254        0.858646641         -23.481177
             0.136       0.864999757        -25.0529778       0.0123015073        -76.6600313       0.0150114727        -87.3488109        0.860094152        -23.8032974
             0.137       0.866304008        -25.2711684       0.0121545298        -76.1920193        0.014846431        -87.1682834        0.861512994          -24.12331
             0.138       0.867584268        -25.4900671       0.0120098866        -75.7255737       0.0146843713        -86.9883211        0.862903857        -24.4412463
             0.139       0.868841072        -25.7096149       0.0118675181        -75.2606477       0.0145252223        -86.8089037        0.864267417        -24.7571383
              0.14       0.870074944        -25.9297564        0.011727366        -74.7971952       0.0143689147        -86.6300125        0.865604327        -25.0710188
             0.141       0.871286394        -26.1504403        0.011589374        -74.3351702       0.0142153805        -86.4516293        0.866915227        -25.3829212
             0.142       0.872475921        -26.3716186       0.0114534869        -73.8745269       0.0140645537        -86.2737374        0.868200737        -25.6928793
             0.143       0.873644011        -26.5932465       0.0113196513        -73.4152192       0.0139163696        -86.0963208        0.869461462        -26.0009271
             0.144       0.874791138        -26.8152825       0.0111878153        -72.9572011       0.0137707653         -85.919364        0.870697989         -26.307099
             0.145       0.875923978         -27.031957       0.0110746775        -72.5454596       0.0136500584        -85.7835406        0.871942362        -26.6021263
             0.146       0.877051186        -27.2359078       0.0110017616        -72.2394446       0.0135829393        -85.7427945        0.873235787        -26.8741932
             0.147       0.878158656        -27.4406316       0.0109295562        -71.9337319       0.0135165827        -85.7020041         0.87450471        -27.1453177
             0.148       0.879246815        -27.6460829       0.0108580485        -71.6282686       0.0134509791        -85.6611423        0.875749704        -27.4155072
             0.149       0.880316078        -27.8522188       0.0107872256        -71.3230025        0.013386119        -85.6201834        0.876971332        -27.6847697
              0.15       0.881366849        -28.0589989       0.0107170749        -71.0178824       0.0133219929        -85.5791029        0.878170139        -27.9531141
             0.151       0.882399525        -28.2663854       0.0106475842        -70.7128578       0.0132585913        -85.5378775        0.879346655        -28.2205502
             0.152       0.883414492        -28.4743426       0.0105787413        -70.4078789       0.0131959046        -85.4964849        0.880501399        -28.4870884
             0.153       0.884412126        -28.6828371       0.0105105345        -70.1028965       0.0131339233        -85.4549037        0.881634873        -28.7527396
             0.154       0.885392795        -28.8918376       0.0104429521        -69.7978619        0.013072638        -85.4131135        0.882747567        -29.0175154
             0.155        0.88635686        -29.1013145       0.0103759829        -69.4927268       0.0130120391        -85.3710946        0.883839959        -29.2814279
             0.156       0.887304669        -29.3112402       0.0103096157        -69.1874436       0.0129521174        -85.3288282        0.884912513        -29.5444895
             0.157       0.888236566        -29.5215887       0.0102438396        -68.8819646       0.0128928633        -85.2862958         0.88596568        -29.8067131
             0.158       0.889152883        -29.7323356       0.0101786442        -68.5762426       0.0128342676        -85.2434801        0.886999901        -30.0681118
             0.159       0.890053947        -29.9434582       0.0101140191        -68.2702305        0.012776321        -85.2003639        0.888015605        -30.3286992
              0.16       0.890940075        -30.1549352       0.0100499542        -67.9638817       0.0127190144        -85.1569306        0.889013209        -30.5884891
             0.161       0.891811578        -30.3667464      0.00998643969        -67.6571493       0.0126623386        -85.1131643        0.889993118        -30.8474953
             0.162       0.892668759        -30.5788731      0.00992346601        -67.3499867       0.0126062847        -85.0690492         0.89095573        -31.1057321
             0.163       0.893511912         -30.791298      0.00986102386        -67.0423474       0.0125508436        -85.0245701        0.891901428        -31.3632138
             0.164       0.894341328        -31.0040045      0.00979910419        -66.7341848       0.0124960066        -84.9797121        0.892830588        -31.6199547
             0.165       0.895157286        -31.2169775      0.00973769819        -66.4254523       0.0124417648        -84.9344604        0.893743577        -31.8759695
             0.166       0.895960062        -31.4302026      0.00967679733        -66.1161031       0.0123881096        -84.8888008        0.894640749        -32.1312727
             0.167       0.896749925        -31.6436667      0.00961639332        -65.8060906       0.0123350326        -84.8427191        0.895522451         -32.385879
             0.168       0.897492695        -31.8416861      0.00954132483        -66.0446271        0.012289657        -85.2648426         0.89627771        -32.5724004
             0.169       0.898217946        -32.0375039      0.00946480911        -66.3801705       0.0122461685        -85.7691732        0.897001974        -32.7478878
              0.17       0.898932054        -32.2338937      0.00938955493        -66.7158166       0.0122033023        -86.2729868         0.89771538        -32.9243315
             0.171       0.899635235        -32.4308358      0.00931553602        -67.0515227       0.0121610466        -86.7762654        0.898418128        -33.1017023
             0.172       0.900327697        -32.6283116      0.00924272666         -67.387247       0.0121193899        -87.2789925        0.899110417        -33.2799723
             0.173       0.901009645        -32.8263032      0.00917110165        -67.7229488       0.0120783207        -87.7811528        0.899792441        -33.4591149
             0.174       0.901681281        -33.0247938      0.00910063629        -68.0585881       0.0120378278        -88.2827319        0.900464389        -33.6391046
             0.175       0.902342799        -33.2237676      0.00903130638         -68.394126          0.0119979        -88.7837169        0.901126447         -33.819917
             0.176       0.902994391        -33.4232094       0.0089630882        -68.7295242       0.0119585264        -89.2840958        0.901778795        -34.0015289
             0.177       0.903636245         -33.623105      0.00889595854        -69.0647455       0.0119196961        -89.7838579        0.902421612        -34.1839179
             0.178       0.904268542        -33.8234408      0.00882989462        -69.3997533       0.0118813983        -90.2829934        0.903055072        -34.3670628
             0.179       0.904891462         -34.024204      0.00876487415        -69.7345117       0.0118436226        -90.7814934        0.903679344        -34.5509432
              0.18        0.90550518        -34.2253825      0.00870087526        -70.0689857       0.0118063585          -91.27935        0.904294594        -34.7355396
             0.181       0.906109865        -34.4269647      0.00863787655        -70.4031409       0.0117695957        -91.7765565        0.904900986        -34.9208334
             0.182       0.906705686          -34.62894      0.00857585702        -70.7369436       0.0117333242        -92.2731068        0.905498679        -35.1068067
             0.183       0.907292806        -34.8312979      0.00851479612        -71.0703609       0.0116975338        -92.7689958        0.906087828        -35.2934425
             0.184       0.907871383        -35.0340289      0.00845467369        -71.4033602       0.0116622147        -93.2642191        0.906668586        -35.4807245
             0.185       0.908441574        -35.2371237      0.00839546999        -71.7359099       0.0116273573        -93.7587733        0.907241103        -35.6686372
             0.186       0.909003532        -35.4405738      0.00833716566        -72.0679788       0.0115929518        -94.2526556        0.907805524        -35.8571657
             0.187       0.909557406         -35.644371      0.00827974174        -72.3995361        0.011558989        -94.7458642        0.908361992        -36.0462957
             0.188       0.910103341        -35.8485077      0.00822317963         -72.730552       0.0115254594        -95.2383977        0.908910648        -36.2360136
             0.189       0.910641481        -36.0529766      0.00816746113        -73.0609969       0.0114923539        -95.7302556        0.909451627        -36.4263064
              0.19       0.911116068        -36.2539002      0.00808377648        -73.7864813        0.011456673        -96.4428497        0.909891553        -36.6025805
             0.191       0.911500952        -36.4494497      0.00795845259        -75.1014802       0.0114168424        -97.4858004        0.910186559        -36.7579421
             0.192       0.911880773        -36.6454708      0.00783493718         -76.410946       0.0113772998        -98.5265505         0.91047815        -36.9144169
             0.193       0.912255605        -36.8419543      0.00771316429         -77.714677       0.0113380255        -99.5651335        0.910766361        -37.0719811
             0.194       0.912625522        -37.0388912      0.00759306958        -79.0124729       0.0112990007        -100.601585        0.911051227        -37.2306117
             0.195       0.912990593        -37.2362734      0.00747459033        -80.3041338       0.0112602069        -101.635942        0.911332782        -37.3902866
             0.196       0.913350889        -37.4340927      0.00735766547        -81.5894604       0.0112216261        -102.668243         0.91161106        -37.5509841
             0.197       0.913706479        -37.6323416      0.00724223556        -82.8682539       0.0111832408        -103.698531        0.911886094        -37.7126836
             0.198       0.914057427        -37.8310129      0.00712824276        -84.1403152       0.0111450341        -104.726848        0.912157917         -37.875365
             0.199       0.914403802        -38.0300997      0.00701563083        -85.4054453       0.0111069896        -105.753238        0.912426561        -38.0390089
               0.2       0.914745665        -38.2295954      0.00690434514        -86.6634445       0.0110690911        -106.777749        0.912692058        -38.2035964
             0.201       0.915083081        -38.4294939      0.00679433265        -87.9141119       0.0110313233        -107.800428         0.91295444        -38.3691095
             0.202       0.915416111        -38.6297892      0.00668554188        -89.1572456        0.010993671        -108.821325        0.913213738        -38.5355305
             0.203       0.915744816        -38.8304757      0.00657792293        -90.3926418       0.0109561196        -109.840491        0.913469982        -38.7028425
             0.204       0.916069255        -39.0315482      0.00647142746        -91.6200942       0.0109186551        -110.857979        0.913723204        -38.8710289
             0.205       0.916389486        -39.2330015      0.00636600866        -92.8393938       0.0108812637        -111.873844        0.913973432        -39.0400739
             0.206       0.916705567        -39.4348309      0.00626162126        -94.0503283       0.0108439323         -112.88814        0.914220696        -39.2099621
             0.207       0.917017552        -39.6370319      0.00615822153        -95.2526811       0.0108066481        -113.900925        0.914465025        -39.3806786
             0.208       0.917325498        -39.8396001      0.00605576724        -96.4462309       0.0107693987        -114.912259        0.914706449        -39.5522089
             0.209       0.917629459        -40.0425316      0.00595421766        -97.6307508       0.0107321722        -115.922199        0.914944995        -39.7245392
              0.21       0.917929486        -40.2458224      0.00585353354        -98.8060076       0.0106949571        -116.930808        0.915180691        -39.8976559
             0.211       0.918225632         -40.449469      0.00575367714        -99.9717608       0.0106577423        -117.938149        0.915413565        -40.0715461
             0.212       0.918517949         -40.653468      0.00565461214        -101.127761       0.0106205173        -118.944284        0.915643645        -40.2461969
             0.213        0.91866185        -40.8526528      0.00565718529        -104.441935       0.0106176455        -120.478048        0.915768423        -40.4479316
             0.214       0.918796566        -41.0519904      0.00565810899        -107.835162        0.010615337        -122.039509        0.915886449        -40.6514248
