! Created Tue Apr 16 19:41:33 2013
# ghz S ma R 50
! 2 Port Network Data from SP1.SP block
! freq  magS11  angS11  magS21  angS21  magS12  angS12  magS22  angS22  
!     
              0.01       0.913321361        -1.30771594     0.000836073884         85.9596417     0.000826051929         88.4522641         0.91456661        -1.35049703
             0.011       0.913129877        -1.39712132     0.000898648182         83.2364975     0.000897404889         85.5668841         0.91438194        -1.44279668
             0.012       0.912932696        -1.48452854     0.000961583934         80.4471258     0.000969100283         82.6194477        0.914191539        -1.53317009
             0.013       0.912736542        -1.57009546      0.00102496333         77.6078739      0.00104123179         79.6257968        0.914002153        -1.62175823
             0.014       0.912522893        -1.65443709      0.00108884846         74.7295675      0.00111387184         76.5963007        0.913795241        -1.70916562
             0.015        0.91231285         -1.7375807      0.00115333202         71.8226765      0.00118712358         73.5410269        0.913591942        -1.79540928
             0.016       0.912098871         -1.8198951      0.00121848104         68.8941211      0.00126106343         70.4665468        0.913384707        -1.88085195
             0.017        0.91188385        -1.90147677      0.00128436931         65.9500305       0.0013357743         67.3786875        0.913176434        -1.96558499
             0.018        0.91166732        -1.98242198      0.00135106411         62.9953942      0.00141133192         64.2821781        0.912966656         -2.0497008
             0.019       0.911442474        -2.06290944      0.00141862447         60.0339384       0.0014878029         61.1805207        0.912748556         -2.1333758
              0.02        0.91122066        -2.14299646      0.00148712111         57.0698549      0.00156526586           58.07771        0.912533502        -2.21666376
             0.021       0.910999489        -2.22276297      0.00155660803         54.1060964      0.00164378138         54.9765292          0.9123191        -2.29964283
             0.022       0.910773116        -2.30215771      0.00162713308         51.1450328      0.00172340299         51.8792006        0.912099495        -2.38226095
             0.023       0.910546561         -2.3812323      0.00169874672         48.1893313      0.00180418674         48.7882595        0.911879715        -2.46456773
             0.024       0.910319243        -2.46012488      0.00177149044         45.2409169      0.00188617863         45.7055152        0.911659178        -2.54670021
             0.025       0.910092251        -2.53881829       0.0018454034         42.3016171      0.00196942175         42.6326921        0.911438975        -2.62864029
             0.026       0.909854112        -2.61727943      0.00192050013         39.3727037      0.00205393232         39.5709713        0.911207611        -2.71035485
             0.027       0.909634777        -2.69567254      0.00199686371         36.4559304       0.0021397997         36.5220188        0.910995091        -2.79200645
             0.028       0.909396568        -2.77378649      0.00207443362         33.5523329      0.00222695892         33.4868004        0.910763671        -2.87338373
             0.029       0.909174113          -2.851915      0.00215330688          30.662869      0.00231551339         30.4661995        0.910548039        -2.95477986
              0.03       0.908944208        -2.92986499      0.00223344403         27.7883132      0.00240541962         27.4609307        0.910324948        -3.03600175
             0.031       0.908704251        -3.00772615      0.00231483523         24.9294734      0.00249666545         24.4717435        0.910091794        -3.11713815
             0.032       0.908476297        -3.08544561      0.00239754632         22.0869265      0.00258931981         21.4991565        0.909870668        -3.19813647
             0.033        0.90835932        -3.17378698      0.00241581947         20.5170117      0.00261396871         19.9793531        0.909757507         -3.2895501
             0.034       0.908327354        -3.27067668       0.0023807121         19.9686721      0.00258221052         19.6310735        0.909726872        -3.38934414
             0.035       0.908288019        -3.36744463      0.00234574211         19.4073762      0.00255051336         19.2734794        0.909688848        -3.48902003
             0.036       0.908244329        -3.46409039      0.00231091369         18.8330358      0.00251887945         18.9066615        0.909646456        -3.58857635
             0.037       0.908212624        -3.56074969      0.00227627458         18.2452893      0.00248735836         18.5304433        0.909616065        -3.68814863
             0.038       0.908177539        -3.65731485      0.00224180017         17.6435945      0.00245592043         18.1444817        0.909582284        -3.78762989
             0.039       0.908151734        -3.75389254      0.00220751712          17.027725      0.00242459229         17.7487586        0.909557794        -3.88712575
              0.04       0.908116775        -3.85035483      0.00217338821         16.3972037       0.0023933299         17.3430209        0.909524132         -3.9865084
             0.041       0.908086027        -3.94678242      0.00213945146         15.7515879      0.00236217188         16.9270553        0.909494683        -4.08585828
             0.042       0.908052185        -4.04314649      0.00210569701         15.0903376       0.0023311038         16.5005677        0.909462134        -4.18514659
             0.043        0.90800777        -4.13938372      0.00207211599         14.4129134      0.00230011193         16.0632778         0.90941899           -4.28431
             0.044       0.907971363        -4.23566305      0.00203875693         13.7187329      0.00226924623         15.6148697        0.909383865        -4.38351715
             0.045       0.907943718         -4.3319266      0.00200562906         13.0072319      0.00223851293         15.1550634        0.909357517        -4.48271019
             0.046       0.907906113        -4.42811681      0.00197269916         12.2777003      0.00220787026         14.6834531        0.909321189        -4.58183153
             0.047       0.907876008        -4.52430133      0.00194001184         11.5295325      0.00217736344         14.1997441        0.909292372        -4.68094852
             0.048       0.907835792        -4.62042132       0.0019075406         10.7619203      0.00214695727         13.7034615        0.909253426        -4.78000246
             0.049        0.90780169        -4.71653961      0.00187532919          9.9741606      0.00211669557         13.1942431        0.909220603        -4.87905611
              0.05       0.907773711        -4.81264569      0.00184338554          9.1654785      0.00208658151         12.6716765        0.909193913        -4.97809877
             0.051       0.907736567         -4.9086862      0.00181169114         8.33496753      0.00205658748         12.1352366        0.909158041        -5.07707718
             0.052       0.907702473        -5.00472842      0.00178028041         7.48178119      0.00202674586         11.5844682        0.909125224        -5.17605842
             0.053       0.907673144        -5.10075993      0.00174916782         6.60502627      0.00199706596         11.0188882        0.909097179        -5.27502999
             0.054       0.907640614        -5.19675508      0.00171835139         5.70370265      0.00196753752         10.4379245        0.909065928        -5.37396624
             0.055       0.907598053        -5.29242074      0.00169061297         4.87560479      0.00194106462         9.91995442        0.909025043        -5.47227223
             0.056       0.907504548         -5.3854188      0.00168789424         4.92559834      0.00194068715         10.1065556        0.908936854        -5.56519546
             0.057       0.907413898        -5.47843534      0.00168507752         4.97666293      0.00194018411          10.295582        0.908851504        -5.65813828
             0.058       0.907313282         -5.5713976       0.0016821403         5.02879264      0.00193952944         10.4870449        0.908756149        -5.75102793
             0.059       0.907214223        -5.66433942      0.00167909914          5.0820912      0.00193874281          10.681066        0.908662334        -5.84389778
              0.06       0.907118506        -5.75727573      0.00167595667         5.13658034      0.00193782762         10.8776824         0.90857185        -5.93676268
             0.061       0.907026071        -5.85021558      0.00167271239         5.19227136      0.00193678361         11.0769217        0.908484636        -6.02963164
             0.062       0.906934484        -5.94316035      0.00166936959         5.24913122      0.00193561474         11.2787518        0.908398256         -6.1225069
             0.063       0.906845663        -6.03609775      0.00166592405         5.30724217      0.00193431665         11.4832864         0.90831463        -6.21537531
             0.064       0.906755611        -6.12901479      0.00166236824         5.36660489      0.00193288075         11.6905464        0.908229755        -6.30822379
             0.065         0.9066587        -6.22190197      0.00165869464         5.42719317      0.00193129838         11.9005208        0.908137994         -6.4010431
             0.066       0.906562376        -6.31478043      0.00165492079         5.48905541      0.00192959052         12.1132629        0.908046807        -6.49385488
             0.067        0.90646879        -6.40765666      0.00165104253         5.55224383      0.00192775288         12.3288612        0.907958349        -6.58666472
             0.068       0.906377722        -6.50053089      0.00164705917         5.61677276      0.00192578504          12.547351        0.907872402        -6.67947282
             0.069       0.906274439         -6.5933681      0.00164295671         5.68255144      0.00192367027         12.7686395        0.907774204         -6.7722454
              0.07       0.906179893        -6.68622272      0.00163875922         5.74974607       0.0019214382          12.992935        0.907684746        -6.86503556
             0.071       0.906093624         -6.7790899      0.00163446527         5.81837457      0.00191908763          13.220279         0.90760357        -6.95783841
             0.072       0.905995065        -6.87192232      0.00163005282         5.88831486      0.00191659209         13.4505455        0.907510071        -7.05060802
             0.073       0.905899009         -6.9647481      0.00162553406         5.95969573       0.0019139671          13.683915        0.907419066        -7.14337107
             0.074        0.90580456        -7.05757616      0.00162091059         6.03251958        0.001911215         13.9204053        0.907329662        -7.23613682
             0.075       0.905710114        -7.15040809      0.00161618546         6.10679539      0.00190833983          14.160033        0.907240252        -7.32890751
             0.076       0.905618271        -7.24322743      0.00161135354         6.18257276       0.0019053362         14.4028998        0.907153438        -7.42166561
             0.077       0.905526448        -7.33606531      0.00160641941         6.25983401      0.00190220995          14.648987        0.907066637        -7.51444323
             0.078       0.905392344        -7.43226727      0.00160814429         6.08996038      0.00191002152         14.4640075        0.906955514        -7.60952867
             0.079       0.905234626        -7.53026861      0.00161351322         5.78809721      0.00192383742         14.0474717        0.906830437        -7.70584439
              0.08       0.905085318        -7.62831747      0.00161892757         5.48826204      0.00193776287         13.6330743        0.906713773        -7.80220815
             0.081        0.90493941        -7.72635208      0.00162436849         5.19042739      0.00195177536         13.2208201        0.906600501        -7.89855705
             0.082        0.90478327        -7.82437297       0.0016298264         4.89450301      0.00196586257         12.8105767        0.906476965        -7.99489307
             0.083       0.904629357        -7.92238251      0.00163530961         4.60055849      0.00198003549          12.402442        0.906355646        -8.09121732
             0.084       0.904475617        -8.02040338      0.00164082143         4.30857675      0.00199429817         11.9963703        0.906234487        -8.18755324
             0.085       0.904323023        -8.11841786      0.00164635965          4.0185624      0.00200864822         11.5923728        0.906114465        -8.28388276
             0.086       0.904171443        -8.21642678      0.00165192402         3.73050851      0.00202308551         11.1904363        0.905995447        -8.38020675
             0.087       0.904020019        -8.31444603      0.00165751532         3.44440189      0.00203761111         10.7905335        0.905876574        -8.47654137
             0.088       0.903870118        -8.41245859      0.00166313064         3.16023797       0.0020522218         10.3926713        0.905759215        -8.57286911
             0.089       0.903712964        -8.51046406      0.00166876241         2.87796396      0.00206690753         9.99677175        0.905634578        -8.66919033
              0.09       0.903555383        -8.60844895      0.00167441292         2.59760093      0.00208167183         9.60287802        0.905509499        -8.76549067
             0.091       0.903404353        -8.70646975      0.00168010198         2.31921895      0.00209654009         9.21101575        0.905390979         -8.8618275
             0.092       0.903257233        -8.80447791      0.00168581521         2.04276135       0.0021114945         8.82116242        0.905276365        -8.95815131
             0.093       0.903101871        -8.90248678      0.00169154334         1.76816412      0.00212652237         8.43321638        0.905153481        -9.05447655
             0.094       0.902946966        -9.00047448       0.0016972895         1.49544719      0.00214162855         8.04722773        0.905031043        -9.15078029
             0.095       0.902798202        -9.09850529      0.00170307219          1.2246754      0.00215683705         7.66321213        0.904914755        -9.24712774
             0.096        0.90265309        -9.19652699      0.00170887799        0.955791109        0.002172131         7.28114548        0.904802117        -9.34346579
             0.097       0.902501092        -9.29453629      0.00171469799        0.688755213      0.00218749804         6.90095859        0.904682568        -9.43979205
             0.098       0.902348048         -9.3925248      0.00172053437        0.423565077      0.00220294161         6.52266737         0.90456196        -9.53609743
             0.099       0.902194971        -9.49053143      0.00172639341        0.160230404      0.00221846988         6.14625424        0.904441312        -9.63242131
               0.1       0.902059453        -9.58926953      0.00173361496       -0.230068071      0.00223388239         5.69888178        0.904324938        -9.73015591
             0.101       0.901991467         -9.6909171      0.00174636379        -1.13064049      0.00224866116         4.96321798        0.904222986        -9.83351726
             0.102        0.90192339        -9.79256872      0.00175936409         -2.0241449      0.00226365007         4.23138441        0.904120943        -9.93688387
             0.103        0.90185678        -9.89420608      0.00177261011        -2.91054851      0.00227884463         3.50341487        0.904020367        -10.0402369
             0.104       0.901789262        -9.99586091      0.00178610277        -3.78977377      0.00229424849         2.77933897        0.903918883         -10.143609
             0.105       0.901724089        -10.0974888      0.00179983291        -4.66183255      0.00230985296          2.0591833        0.903819742        -10.2469545
             0.106       0.901656891        -10.1991512      0.00181380429        -5.52663363      0.00232566524         1.34297465        0.903718576        -10.3503363
             0.107       0.901591806        -10.3007893      0.00182800672         -6.3842201      0.00234167535        0.630729712        0.903619523        -10.4536942
             0.108       0.901526141        -10.4024462      0.00184244113        -7.23454196      0.00235788706       -0.077533438         0.90351989        -10.5570723
             0.109       0.901461194        -10.5041007      0.00185710192         -8.0776144      0.00237429604       -0.781800659        0.903420973        -10.6604489
              0.11       0.901394856        -10.6057421      0.00187198164        -8.91345523      0.00239089516        -1.48207207         0.90332066        -10.7638132
             0.111       0.901322396         -10.707389      0.00188707447          -9.742058      0.00240767929        -2.17834742        0.903214212        -10.8671844
             0.112        0.90125199        -10.8090105      0.00190238099        -10.5634626      0.00242465262        -2.87060368        0.903109817        -10.9705307
             0.113       0.901186678        -10.9106716      0.00191791443        -11.3775787      0.00244183574        -3.55877578         0.90301053        -11.0739182
             0.114       0.901123716         -11.012316      0.00193365683        -12.1845341      0.00245920753        -4.24291758        0.902913595        -11.1772894
             0.115       0.901057836        -11.1139574       0.0019495999        -12.9843586      0.00247675949        -4.92304601        0.902813734        -11.2806587
             0.116       0.900987237        -11.2156053      0.00196573907        -13.7770797      0.00249448835        -5.59916464        0.902709144        -11.3840358
             0.117       0.900918523        -11.3172286      0.00198207469        -14.5627675       0.0025123976        -6.27127265        0.902606439        -11.4873886
             0.118       0.900848004         -11.418892      0.00199860813        -15.3413918      0.00253049184        -6.93935135        0.902501927        -11.5907833
             0.119       0.900778915        -11.5205384      0.00201533165        -16.1130717      0.00254876351         -7.6034342        0.902398845        -11.6941615
              0.12       0.900712721        -11.6221832      0.00203224728         -16.877829      0.00256721808        -8.26351134        0.902298663        -11.7975389
             0.121       0.900650481        -11.7238505      0.00204935774        -17.6356784      0.00258586201         -8.9195693         0.90220244        -11.9009402
             0.122        0.90058997        -11.8254937      0.00206664774        -18.3867689      0.00260467725        -9.57167799        0.902107948        -12.0043179
             0.123       0.900484893        -11.9196661      0.00207044018        -19.0373931       0.0026174813        -10.1073242        0.902004685        -12.1009489
             0.124       0.900365294        -12.0113375       0.0020698222        -19.6552695      0.00262834415         -10.602936        0.901898835        -12.1953203
