! Created Tue Apr 16 19:42:11 2013
# ghz S ma R 50
! 2 Port Network Data from SP1.SP block
! freq  magS11  angS11  magS21  angS21  magS12  angS12  magS22  angS22  
!     
              0.01       0.457614971        -3.18295552        0.214923834        -1.30364337        0.214521869        -1.29968293        0.459404761        -3.25434387
             0.011       0.458556034         -4.0882892        0.214299742       -0.131492223         0.21392281       -0.128903253        0.460373994         -4.1517458
             0.012       0.459377233        -4.77899303        0.213724356        0.725834642         0.21337218        0.727052602        0.461218104         -4.8365042
             0.013       0.460009656        -5.30829841        0.213208566          1.3423675        0.212880871          1.3422149         0.46187044         -5.3613909
             0.014       0.460415343        -5.71243257        0.212750997         1.76747105         0.21244753         1.76594835        0.462294299        -5.76231246
             0.015       0.460611339         -6.0207999        0.212351975           2.043123        0.212072502         2.04023065        0.462507583        -6.06839428
             0.016       0.460603745        -6.25313919        0.212005992         2.19707754        0.211750305         2.19281601        0.462516845        -6.29918989
             0.017       0.460410436        -6.42457344        0.211708733         2.25147353        0.211476647         2.24584328        0.462340256        -6.46967587
             0.018       0.460047974        -6.54650988        0.211455487         2.22328963        0.211246838         2.21629113        0.461994552        -6.59114835
             0.019       0.459526145        -6.62677802        0.211241296         2.12413613         0.21105594         2.11576985          0.4614896        -6.67136302
              0.02       0.458870619        -6.67386564         0.21106338         1.96712125        0.210901187         1.95738765        0.460851169        -6.71872161
             0.021       0.458093296        -6.69297717        0.210917829         1.76039104        0.210778684         1.74929061        0.460091185        -6.73837779
             0.022       0.457200185        -6.68713911        0.210801161         1.50914223        0.210684962         1.49667543        0.459215649        -6.73332964
             0.023       0.456207707        -6.66093345        0.210710885          1.2207078        0.210617541         1.20687512        0.458241004        -6.70811223
             0.024       0.455125388        -6.61735116        0.210644295        0.899769435        0.210573724        0.884571357        0.457176775        -6.66568798
             0.025       0.453962305        -6.55869811        0.210599476        0.550327888        0.210551605        0.533764891        0.456032032        -6.60833966
             0.026       0.452717833        -6.48598342        0.210572648          0.1744817         0.21054741        0.156554267        0.454806107        -6.53706793
             0.027        0.45141647        -6.40205762        0.210568101       -0.223563317        0.210565438       -0.242854704        0.453523565        -6.45469488
             0.028       0.450045713        -6.30802658        0.210575381       -0.641044105        0.210595238       -0.661698965        0.452171804        -6.36231224
             0.029       0.448626806          -6.205075        0.210601622         -1.0767075        0.210643951        -1.09872536        0.450772135        -6.26109762
              0.03       0.447152361        -6.09366971        0.210640401        -1.52891663        0.210705159        -1.55229699        0.449317101        -6.15151162
             0.031       0.445627639        -5.97557252        0.210689146        -1.99493561        0.210776291        -2.01967801        0.447811954        -6.03529695
             0.032       0.444064247        -5.85041837        0.210753137        -2.47495638        0.210862634        -2.50106034        0.446268332        -5.91209551
             0.033       0.443274125        -5.88508774        0.210736759        -2.69121073        0.210846573        -2.71805907        0.445501956        -5.94675979
             0.034       0.443129426        -6.04732312        0.210649519        -2.69379272        0.210741652        -2.72088104         0.44538397        -6.10740932
             0.035       0.442970723        -6.20162685        0.210564017        -2.70772011        0.210638481        -2.73504876        0.445251753        -6.26019386
             0.036       0.442801911        -6.34942615        0.210480005        -2.73093416        0.210536814         -2.7585035        0.445109238        -6.40652497
             0.037       0.442630712        -6.49129564        0.210401386        -2.76300223        0.210440551        -2.79081262        0.444964205        -6.54697484
             0.038       0.442447665        -6.62678004        0.210325288        -2.80428643        0.210346821        -2.83233822        0.444807163        -6.68109565
             0.039       0.442261632        -6.75729575        0.210253635        -2.85302428        0.210257546        -2.88131782        0.444647026         -6.8102885
              0.04       0.442063563        -6.88292393        0.210182161        -2.90872994         0.21016846        -2.93726558        0.444474709         -6.9346335
             0.041       0.441860272        -7.00413226         0.21011386        -2.97096523        0.210082556        -2.99974333        0.444297072        -7.05459533
             0.042       0.441648313        -7.12113451        0.210046996        -3.03932828        0.209998098        -3.06834918        0.444110655        -7.17038612
             0.043       0.441424121        -7.23408523        0.209979828         -3.1134202        0.209913345        -3.14268427        0.443911882        -7.28215897
             0.044       0.441197239        -7.34352823        0.209916476        -3.19291598        0.209832415        -3.22242356        0.443710356         -7.3904544
             0.045       0.440967997        -7.44954377        0.209857135        -3.27755647        0.209755504        -3.30730792        0.443506415        -7.49535222
             0.046       0.440727726        -7.55233606        0.209797335        -3.36685144         0.20967814        -3.39684711        0.443291344         -7.5970538
             0.047       0.440485507        -7.65228472        0.209740889        -3.46045477        0.209604137        -3.49069501         0.44307428        -7.69593581
             0.048       0.440232763         -7.7493996        0.209683738        -3.55816017        0.209529436        -3.58864534        0.442846597        -7.79200788
             0.049       0.439977309        -7.84388664        0.209629701        -3.65986512        0.209457854        -3.69059555        0.442616166        -7.88547542
              0.05       0.439719816        -7.93598847        0.209578515        -3.76518099        0.209389127        -3.79615704        0.442383658         -7.9765782
             0.051        0.43945285        -8.02572103         0.20952668        -3.87391575        0.209319759        -3.90513778        0.442141599        -8.06533176
             0.052       0.439182815         -8.1133642        0.209476837        -3.98585014        0.209252387        -4.01731849        0.441896432        -8.15201387
             0.053       0.438910769        -8.19904806        0.209429319        -4.10076489        0.209187343        -4.13247991        0.441649225        -8.23675328
             0.054       0.438633002        -8.28283824        0.209382245        -4.21847981        0.209122749        -4.25044185        0.441396245         -8.3196148
             0.055       0.438356319        -8.36970657         0.20934004        -4.33254218        0.209065187        -4.36474077        0.441142949        -8.40519143
             0.056        0.43814116        -8.49862188        0.209341619        -4.39252695        0.209070834        -4.42486479         0.44093895        -8.52943365
             0.057       0.437924741        -8.62575101        0.209344799        -4.45520518        0.209078078        -4.48768218        0.440733545        -8.65191478
             0.058       0.437700948        -8.75108646        0.209346572        -4.52038057        0.209083915        -4.55299663        0.440520587        -8.77262628
             0.059         0.4374764        -8.87501438        0.209349201        -4.58759363        0.209090608        -4.62034867        0.440306737        -8.89194899
              0.06       0.437252117        -8.99764508        0.209353033        -4.65672239          0.2090985        -4.68961632        0.440093028        -9.00999196
             0.061        0.43702821        -9.11906875        0.209357993        -4.72765567         0.20910752        -4.76068839        0.439879575        -9.12684426
             0.062       0.436801337        -9.23883581        0.209364365        -4.80106224        0.209117949        -4.83423366        0.439663043        -9.24206413
             0.063       0.436574621        -9.35749664        0.209371734         -4.8760982        0.209129373        -4.90940824         0.43944656        -9.35619274
             0.064       0.436346369        -9.47512607        0.209379086        -4.95261274        0.209140779         -4.9860613        0.439228424        -9.46930357
             0.065       0.436113328        -9.59162267        0.209385329        -5.03072348        0.209151077        -5.06431047        0.439005371        -9.58129681
             0.066       0.435877698        -9.70676052        0.209392731         -5.1108372        0.209162533        -5.14456253        0.438779637        -9.69195106
             0.067       0.435642807        -9.82108806        0.209400898        -5.19215657        0.209174751        -5.22602014        0.438554549        -9.80180585
             0.068       0.435408656        -9.93465557        0.209409736        -5.27460672         0.20918764        -5.30860845        0.438330113        -9.91091078
             0.069       0.435165201        -10.0467985        0.209416973        -5.35906523        0.209198928        -5.39320504        0.438096255        -10.0186117
              0.07       0.434925615        -10.1583112        0.209426278        -5.44452406        0.209212283        -5.47880185        0.437866205        -10.1256911
             0.071       0.434689838        -10.2692421        0.209437483        -5.53089694        0.209227534        -5.56531261        0.437639902        -10.2321968
             0.072       0.434444716        -10.3788484        0.209447075        -5.61913847        0.209241174        -5.65369194        0.437404149         -10.337397
             0.073       0.434200817        -10.4879345        0.209457156        -5.70814474        0.209255302        -5.74283592        0.437169544        -10.4420839
             0.074       0.433956867         -10.596356        0.209467851        -5.79815335        0.209270042        -5.83298215        0.436934817        -10.5461155
             0.075       0.433710549        -10.7038217         0.20947938         -5.8896016        0.209285616        -5.92456793        0.436697663        -10.6492056
             0.076       0.433465766         -10.810868         0.20949132        -5.98164863          0.2093016        -6.01675239        0.436461973        -10.7518816
             0.077       0.433218871        -10.9170697        0.209504008          -6.075007         0.20931833         -6.1102481        0.436224116        -10.8537259
             0.078       0.433063987        -11.0315724        0.209468969        -6.15323982         0.20928694        -6.18812873        0.436079659        -10.9638941
             0.079       0.432958467        -11.1503111        0.209407946        -6.22359984        0.209229353        -6.25787294        0.435985278         -11.078313
              0.08       0.432854974        -11.2682432        0.209349614        -6.29524928        0.209174455        -6.32890649        0.435892903        -11.1919378
             0.081        0.43275404        -11.3858636        0.209291672        -6.36727954        0.209119946        -6.40032081        0.435803024        -11.3052539
             0.082       0.432645688         -11.502533        0.209232295         -6.4406385        0.209064003        -6.47306374        0.435705653        -11.4176325
             0.083       0.432538982        -11.6188596        0.209173174         -6.5144347        0.209008315        -6.54624387        0.435609869        -11.5296721
             0.084        0.43243104        -11.7345366         0.20911457        -6.58918911        0.208953143        -6.62038212        0.435512801        -11.6410715
             0.085       0.432323277        -11.8497315        0.209056337        -6.66460602        0.208898342        -6.69518282        0.435415863        -11.7519951
             0.086       0.432215558        -11.9644463        0.208998474        -6.74068621         0.20884391        -6.77064673        0.435318919         -11.862445
             0.087       0.432106793        -12.0785983        0.208941051        -6.81759762        0.208789917        -6.84694179        0.435220888        -11.9723403
             0.088       0.431998933        -12.1924068        0.208883881        -6.89496628        0.208736177        -6.92369404         0.43512371        -12.0818964
             0.089       0.431885975        -12.3055607        0.208825624         -6.9732541         0.20868135        -7.00136539        0.435021373        -12.1908071
              0.09       0.431773407        -12.4184451        0.208767004        -7.05185031        0.208626159        -7.07934507        0.434919368        -12.2994513
             0.091       0.431662155        -12.5307449        0.208710583        -7.13139534        0.208573166        -7.15827349        0.434818671        -12.4075202
             0.092       0.431553605        -12.6428498        0.208654715        -7.21116336        0.208520725        -7.23742484        0.434720634        -12.5153963
             0.093       0.431439152        -12.7543116        0.208597667        -7.29186188        0.208467105        -7.31750663        0.434616638        -12.6226387
             0.094        0.43132575        -12.8655808        0.208540372        -7.37275524        0.208413237         -7.3977832        0.434513639        -12.7296904
             0.095       0.431213562        -12.9763353        0.208485141         -7.4545146        0.208361431        -7.47892571         0.43441185        -12.8362359
             0.096       0.431103807        -13.0869067        0.208430459        -7.53649125        0.208310175        -7.56028544        0.434312456        -12.9426004
             0.097       0.430989228         -13.196945        0.208374756        -7.61920716        0.208257897        -7.64238436        0.434208188        -13.0484395
             0.098       0.430874453        -13.3067393        0.208318667        -7.70220133        0.208205233        -7.72476149        0.434103674        -13.1540375
             0.099       0.430758695        -13.4161439        0.208262921        -7.78580224        0.208152911        -7.80774529        0.433998146        -13.2592518
               0.1       0.430664782        -13.5273681        0.208193428        -7.86588613        0.208083829        -7.88761488         0.43390457        -13.3662756
             0.101       0.430657375        -13.6466601        0.208068253        -7.93074736        0.207947012        -7.95387334         0.43385803        -13.4813208
             0.102       0.430649181        -13.7655713        0.207943346        -7.99614352        0.207810463        -8.02066697        0.433810675        -13.5959999
             0.103       0.430642278        -13.8842815        0.207818541        -8.06174745        0.207674017         -8.0876686        0.433764572        -13.7104896
             0.104       0.430633436        -14.0025281        0.207694104        -8.12805351         0.20753794         -8.1553726        0.433716511        -13.8245313
             0.105       0.430627112        -14.1206888        0.207569655        -8.19435707        0.207401852        -8.22307432        0.433670922        -13.9384965
             0.106       0.430617477        -14.2383104        0.207445654        -8.26153283        0.207266212        -8.29164848        0.433622013        -14.0519389
             0.107       0.430610075        -14.3558351        0.207321655        -8.32873243        0.207130575        -8.36024671        0.433575294        -14.1652937
             0.108       0.430601321        -14.4729972        0.207197939        -8.39648963        0.206995221        -8.42940279        0.433527203        -14.2782991
             0.109        0.43059296        -14.5899351        0.207074363        -8.46453188        0.206860008        -8.49884414        0.433479474        -14.3910913
              0.11       0.430584108        -14.7066571        0.206950394        -8.53281647        0.206724403        -8.56852806        0.433431215        -14.5036782
             0.111       0.430571018        -14.8229904        0.206825527        -8.60166672        0.206587903        -8.63877788        0.433378686         -14.615889
             0.112       0.430560123        -14.9392439        0.206700653        -8.67051514        0.206451396        -8.70902611        0.433328311        -14.7280285
             0.113       0.430549856        -15.0551034        0.206577651        -8.74004442        0.206316759        -8.77995543        0.433278576        -14.8397868
             0.114       0.430541498        -15.1708454        0.206454875        -8.80965727         0.20618235        -8.85096855        0.433230716        -14.9514366
             0.115       0.430531417        -15.2863482        0.206331559        -8.87958556        0.206047402        -8.92229735        0.433181102        -15.0628571
             0.116       0.430518187        -15.4015575        0.206207516        -8.94994314        0.205911727        -8.99405567        0.433128307        -15.1739947
             0.117       0.430506965          -15.51669        0.206083468        -9.02029929         0.20577605        -9.06581279        0.433077482        -15.2850636
             0.118       0.430492978        -15.6314604        0.205959763        -9.09129653        0.205640715        -9.13821124        0.433023886        -15.3957813
             0.119       0.430480419        -15.7461262        0.205836091        -9.16235998        0.205505414        -9.21067612        0.432971687        -15.5064028
              0.12       0.430469254        -15.8606158         0.20571307        -9.23364943        0.205370764        -9.28336725        0.432920863        -15.6168568
             0.121       0.430458889        -15.9748288        0.205591366        -9.30539706         0.20523743        -9.35651677        0.432870838        -15.7270441
             0.122       0.430450359        -16.0889678        0.205469659        -9.37714357        0.205104093        -9.42966543        0.432822614         -15.837165
             0.123       0.430384848        -16.2006836         0.20541093        -9.44979687        0.205050095        -9.50270398        0.432733437        -15.9505609
             0.124       0.430300915        -16.3115355        0.205373107        -9.52279152        0.205022458        -9.57574468        0.432631208        -16.0649939
