! Created Tue Apr 16 19:44:03 2013
# ghz S ma R 50
! 2 Port Network Data from SP1.SP block
! freq  magS11  angS11  magS21  angS21  magS12  angS12  magS22  angS22  
!     
              0.01       0.916945658        -1.34058147     0.000978786613         79.0449001     0.000951366719         76.9440745        0.916101831        -1.32824575
             0.011       0.916795188        -1.42522744      0.00103740408         76.9225566      0.00101304248         74.7554177         0.91585381        -1.41497747
             0.012       0.916638305        -1.50805933      0.00109638081          74.738905      0.00107511523          72.507848        0.915599846        -1.49990354
             0.013       0.916481932        -1.58919222      0.00115576397         72.5084359      0.00113763486         70.2158009        0.915346751         -1.5831371
             0.014       0.916307616        -1.66921399      0.00121558012         70.2405302      0.00120063047         67.8885837         0.91507601        -1.66526374
             0.015       0.916136613        -1.74812616      0.00127589207         67.9444019      0.00126416617         65.5353253        0.914808806        -1.74628488
             0.016       0.915961421        -1.82628184       0.0013367359         65.6259391      0.00132827943         63.1618235        0.914537602        -1.82655264
             0.017        0.91578499        -1.90376445      0.00139815732         63.2903594      0.00139301678         60.7732037        0.914265311        -1.90614999
             0.018       0.915606886        -1.98066036      0.00146019709         60.9418472      0.00145841952         58.3735567        0.913991476        -1.98516289
             0.019       0.915420313        -2.05714187      0.00152288938         58.5834205        0.001524522         55.9658097        0.913709287        -2.06376278
              0.02       0.915236671        -2.13325777      0.00158628365         56.2186062      0.00159137351         53.5533951        0.913430117        -2.14199903
             0.021       0.915053582         -2.2090833      0.00165041376         53.8497826       0.0016590075         51.1386002        0.913151576        -2.21994657
             0.022       0.914865201        -2.28456459      0.00171530967         51.4788153      0.00172745326         48.7232027        0.912867815        -2.29755071
             0.023       0.914676569         -2.3597485       0.0017810072          49.107906      0.00179674562         46.3093134        0.912583863        -2.37485873
             0.024       0.914487111         -2.4347703      0.00184753536         46.7385835       0.0018669124         43.8983735        0.912299138        -2.45200581
             0.025       0.914297928         -2.5096104      0.00191492359         44.3723354      0.00193798161         41.4917841        0.912014731        -2.52897229
             0.026       0.914097514        -2.58423498      0.00198317846         42.0101539      0.00200995795         39.0904546        0.911719154        -2.60572362
             0.027       0.913915948        -2.65880444       0.0020523806          39.653554      0.00208292086          36.695813        0.911442413         -2.6824212
             0.028       0.913715381        -2.73310742      0.00212246507         37.3033934      0.00215680227         34.3086364        0.911146754        -2.75885294
             0.029       0.913530611        -2.80743552      0.00219353179            34.9605      0.00223170097          31.929672        0.910866876        -2.83531089
              0.03       0.913338334         -2.8815956      0.00226554325         32.6255659      0.00230757626          29.559535         0.91057953        -2.91160125
             0.031       0.913135922         -2.9556756      0.00233849559         30.2993571      0.00238442139         27.1989139        0.910282107        -2.98781235
             0.032       0.912945557        -3.02962216      0.00241246366         27.9824563      0.00246230957         24.8483179        0.909996708        -3.06389061
             0.033       0.912848258        -3.10852388      0.00242981225         27.0745159      0.00248198891          23.769527        0.909850128        -3.15047885
             0.034       0.912821134         -3.1913413      0.00240015325         27.3100322      0.00245341056         23.7198909        0.909811316        -3.24552239
             0.035        0.91278641        -3.27404674      0.00237037127         27.5408863      0.00242479262         23.6633336        0.909765108        -3.34044821
             0.036       0.912747111        -3.35663826      0.00234046736         27.7673329      0.00239613602         23.6000169        0.909714517        -3.43525526
             0.037       0.912719675        -3.43925059      0.00231048663         27.9893695      0.00236748668         23.5298433        0.909675912        -3.53007892
             0.038       0.912688697        -3.52177642      0.00228040016         28.2068227      0.00233881493         23.4525472        0.909633911        -3.62481168
             0.039       0.912666887        -3.60432094       0.0022502316         28.4198618      0.00231014496         23.3681923        0.909601187         -3.7195596
              0.04       0.912635736        -3.68675636      0.00221993844          28.628416      0.00228143329         23.2766061        0.909559281        -3.81419479
             0.041       0.912608683        -3.76916258      0.00218955525         28.8324716      0.00225271531         23.1776645        0.909521578        -3.90879765
             0.042       0.912578399         -3.8515106      0.00215906695          29.031933      0.00222397568         23.0711608        0.909480765         -4.0033393
             0.043       0.912537379        -3.93373693      0.00212845902         29.2267241       0.0021951996         22.9569039        0.909429351        -4.09775634
             0.044       0.912504297        -4.01600966      0.00209777626         29.4167521      0.00216643325         22.8346761        0.909385946        -4.19221741
             0.045       0.912479921        -4.09827062      0.00206702249         29.6019587      0.00213768087         22.7042932        0.909351308        -4.28666456
             0.046       0.912445443        -4.18046238      0.00203615656         29.7821576       0.0021089005         22.5654428        0.909306684        -4.38104023
             0.047       0.912418409        -4.26265195      0.00200521838         29.9572995      0.00208013363         22.4179348        0.909269562        -4.47541183
             0.048       0.912381132        -4.34478063      0.00197417262         30.1271397      0.00205134435         22.2613904        0.909222305        -4.56972057
             0.049       0.912349921        -4.42691063      0.00194305749         30.2915723       0.0020225726         22.0955544        0.909181163        -4.66402909
              0.05       0.912324784        -4.50903129      0.00191187305         30.4504419      0.00199381918         21.9201193        0.909146145        -4.75832682
             0.051        0.91229037        -4.59108934      0.00188059049         30.6034704      0.00196505507         21.7346579        0.909101941        -4.85256041
             0.052       0.912258949        -4.67315168      0.00184923667         30.7504777      0.00193630893         21.5388245        0.909060783          -4.946797
             0.053       0.912232248        -4.75520572      0.00181781668         30.8912537      0.00190758704         21.3322413        0.909024389        -5.04102411
             0.054       0.912202267         -4.8372258      0.00178631718         31.0254922       0.0018788767         21.1144349        0.908984782        -5.13521607
             0.055       0.912158539        -4.91988249      0.00175918964         31.1958976      0.00185345076         20.9339335        0.908939133        -5.22870642
             0.056       0.912031145        -5.00854799      0.00177201258          31.753368      0.00185740629          21.191249        0.908878547        -5.31616998
             0.057        0.91190664        -5.09723445      0.00178470539         32.3165571      0.00186124328         21.4525028        0.908820789          -5.403652
             0.058       0.911772144         -5.1858692      0.00179724672         32.8853959      0.00186493689         21.7176805        0.908753022        -5.49107976
             0.059       0.911639216        -5.27448604      0.00180965834         33.4599648      0.00186850667         21.9868964        0.908686782        -5.57848706
              0.06       0.911509652        -5.36309981      0.00182194706         34.0402409       0.0018719565         22.2601718        0.908623859        -5.66588882
             0.061       0.911383387         -5.4517195      0.00183411627         34.6261909       0.0018752867         22.5375177        0.908564195        -5.75329413
             0.062       0.911258003        -5.54034559      0.00184617375         35.2176933      0.00187850174         22.8188738        0.908505361         -5.8407043
             0.063       0.911135399        -5.62896646      0.00185811892         35.8148264      0.00188159798         23.1043484         0.90844927         -5.9281071
             0.064       0.911011558        -5.71756918      0.00186994702         36.4175484      0.00188456751          23.393945         0.90839192        -6.01548959
             0.065       0.910880835        -5.80614403        0.001881653         37.0257745      0.00188740229         23.6876306        0.908327675        -6.10284229
             0.066       0.910750725         -5.8947113      0.00189326188         37.6394851      0.00189012373         23.9854396        0.908264002        -6.19018618
             0.067       0.910623359        -5.98327836      0.00190477332         38.2587382      0.00189272827         24.2874581        0.908203046         -6.2775279
             0.068       0.910498519        -6.07184543        0.001916191         38.8835082      0.00189521618         24.5937065        0.908144588        -6.36486773
             0.069       0.910361442         -6.1603762      0.00192750153         39.5135786      0.00189757125         24.9040503        0.908073881        -6.45217043
              0.07       0.910233131         -6.2489262      0.00193873999         40.1491598      0.00189982401         25.2187126        0.908011903        -6.53949063
             0.071       0.910113124        -6.33749063      0.00194990979         40.7902301      0.00190197414         25.5377207        0.907958195        -6.62682351
             0.072       0.909980807        -6.42602068       0.0019609869         41.4365197      0.00190399544          25.860899        0.907892166        -6.71412147
             0.073       0.909850992        -6.51454597      0.00197199226         42.0882125      0.00190590449         26.1884437        0.907828619        -6.80141296
             0.074       0.909722791        -6.60307496      0.00198293284         42.7452394      0.00190770443         26.5203506        0.907766665        -6.88870682
             0.075       0.909594612        -6.69160833      0.00199381755         43.4075116      0.00190940012         26.8566072        0.907704704        -6.97600443
             0.076       0.909469032          -6.780131      0.00200464523         44.0751084      0.00191098701           27.19732        0.907645328        -7.06328969
             0.077       0.909343488         -6.8686727      0.00201542686         44.7478811      0.00191247186         27.5424328        0.907585962        -7.15059338
             0.078         0.9091983        -6.97162346      0.00202591824         44.9672009      0.00192028672         27.5686322        0.907516756        -7.23905463
             0.079       0.909041732        -7.08232197       0.0020362593          44.941632      0.00193154823         27.4227843        0.907441381        -7.32812655
              0.08       0.908893688         -7.1930686      0.00204661695         44.9174552      0.00194283683         27.2785035        0.907374418        -7.41724491
             0.081       0.908749104        -7.30380323      0.00205696635         44.8947293      0.00195412954         27.1358049        0.907310827        -7.50634861
             0.082       0.908594329        -7.41452459      0.00206729385         44.8732243      0.00196541381         26.9945053        0.907236965        -7.59543752
             0.083       0.908441838        -7.52523654      0.00207761251         44.8531121      0.00197670126         26.8547276        0.907165303        -7.68451467
             0.084       0.908289585        -7.63596073       0.0020879273         44.8342955      0.00198799632         26.7163981        0.907093795        -7.77360231
             0.085       0.908138538        -7.74667988      0.00209823602         44.8168031      0.00199929675         26.5795282        0.907023411        -7.86268297
             0.086       0.907988563        -7.85739474      0.00210853899         44.8006151      0.00201060266         26.4440957         0.90695402         -7.9517575
             0.087       0.907838803        -7.96812085      0.00211883796         44.7856826      0.00202191544         26.3100586        0.906884768        -8.04084161
             0.088       0.907690618        -8.07884172      0.00212912973          44.772041      0.00203323199         26.1774298        0.906817016        -8.12991866
             0.089       0.907535212        -8.18955622      0.00213940359         44.7595517      0.00204454236         26.0460981        0.906741976        -8.21898777
              0.09       0.907379416        -8.30025169      0.00214966392         44.7483181      0.00205585035         25.9161282        0.906666477        -8.30803615
             0.091       0.907230259        -8.41098355      0.00215993994         44.7383173      0.00206718242         25.7875274        0.906597541        -8.39711942
             0.092       0.907085062        -8.52170427      0.00217021192         44.7295858      0.00207852036           25.66029        0.906532498        -8.48619002
             0.093       0.906931648        -8.63242625      0.00218046643         44.7219281      0.00208985177         25.5342671        0.906459176        -8.57526034
             0.094       0.906778726        -8.74312849      0.00219070915         44.7154777      0.00210118161         25.4095423        0.906386284        -8.66430955
             0.095       0.906632026        -8.85387434      0.00220096784         44.7101972      0.00211253503         25.2861128        0.906319547        -8.75340086
             0.096       0.906489027        -8.96461232      0.00221122377          44.706119      0.00212389475         25.1639714         0.90625645        -8.84248308
             0.097       0.906339164        -9.07533857      0.00222146403         44.7030952       0.0021352488         25.0430085        0.906186432        -8.93155207
             0.098       0.906188285        -9.18604514      0.00223169271         44.7011997      0.00214660073         24.9232638         0.90611534        -9.02060021
             0.099       0.906037418        -9.29677057      0.00224191977         44.7003834      0.00215795943         24.8047068        0.906044203        -9.10966582
               0.1       0.905906485        -9.40961744      0.00225163496         44.6632057      0.00216767708         24.5792572        0.905965707        -9.20001355
             0.101       0.905852477        -9.53093122      0.00225933103         44.4770061      0.00217091467         23.9221037         0.90585512        -9.29547493
             0.102       0.905798442        -9.65225029      0.00226705294         44.2914059      0.00217432153          23.265252        0.905744432         -9.3909412
             0.103       0.905745937        -9.77355648      0.00227479701         44.1064429       0.0021778945         22.6088017        0.905635197        -9.48639472
             0.104       0.905692588        -9.89488128      0.00228256976         43.9220531      0.00218163949         21.9528137        0.905525049         -9.5818661
             0.105        0.90564164        -10.0161805      0.00229036229         43.7383222      0.00218554865         21.2974025        0.905417227        -9.67731253
             0.106       0.905588733        -10.1375153      0.00229818595         43.5551392      0.00218963195          20.642615        0.905307378        -9.77279328
             0.107       0.905537993        -10.2588269      0.00230603005         43.3726075      0.00219387996         19.9885662        0.905199626        -9.86825153
             0.108       0.905486734        -10.3801586      0.00231390174         43.1906556      0.00219829881         19.3353146        0.905091287        -9.96372916
             0.109       0.905436248         -10.501489      0.00232179765         43.0093168      0.00220288542         18.6829512        0.904983652        -10.0592056
              0.11       0.905384415        -10.6228073       0.0023297118         42.8285728      0.00220763438         18.0315375        0.904874607        -10.1546702
             0.111       0.905326493        -10.7441324      0.00233764148         42.6483521      0.00221254304         17.3811198        0.904759414        -10.2501406
             0.112       0.905270676        -10.8654329      0.00234559182         42.4687719      0.00221761584         16.7318288        0.904646259        -10.3455875
             0.113       0.905220038        -10.9867744      0.00235358928         42.2898292      0.00222287514         16.0837996        0.904538219        -10.4410739
             0.114       0.905171804        -11.1080998       0.0023616111         42.1115245      0.00222830093         15.4370541        0.904432518        -10.5365451
             0.115       0.905120689        -11.2294234      0.00236965085         41.9337853      0.00223388717         14.7916271        0.904323877        -10.6320144
             0.116       0.905064886        -11.3507546      0.00237770761         41.7565839      0.00223963258         14.1475815        0.904210495        -10.7274906
             0.117       0.905011016        -11.4720617       0.0023857857         41.5800115      0.00224554065          13.505022        0.904098984         -10.822944
             0.118        0.90495539        -11.5934105      0.00239389476         41.4039962      0.00225161867         12.8640251        0.903985662        -10.9184373
             0.119       0.904901241        -11.7147429      0.00240202649         41.2285986      0.00225785929         12.2246507        0.903873758        -11.0139152
              0.12       0.904850046        -11.8360744      0.00241018951         41.0538296      0.00226426912         11.5869909        0.903764747        -11.1093926
             0.121       0.904802873        -11.9574297      0.00241839391         40.8796957      0.00227085575         10.9511421        0.903659698        -11.2048925
             0.122       0.904757475        -12.0787612      0.00242662037         40.7061815      0.00227760245         10.3171033        0.903556365        -11.3003704
             0.123       0.904702116        -12.1746339      0.00242604762         40.6265526      0.00227696165          9.8882899        0.903410757        -11.3924214
             0.124       0.904643753        -12.2620089      0.00242253417         40.5787057        0.002273879         9.52712457        0.903251392        -11.4833203
