! Created Tue Apr 16 19:44:30 2013
# ghz S ma R 50
! 2 Port Network Data from SP1.SP block
! freq  magS11  angS11  magS21  angS21  magS12  angS12  magS22  angS22  
!     
              0.01       0.457714113        -2.87646549        0.211872289        -1.95877194        0.211283052        -1.95518175        0.457743594        -2.84818998
             0.011       0.458630354        -3.79193918        0.211269352       -0.764348435        0.210697546       -0.762456869        0.458549272        -3.76179009
             0.012        0.45946273        -4.49265873        0.210706237        0.114732698        0.210151635        0.114925941        0.459273148        -4.46179257
             0.013       0.460133545        -5.03148182        0.210195676        0.752528068         0.20965803        0.751023289        0.459837616        -5.00072773
             0.014       0.460598699        -5.44449692        0.209737691         1.19844228        0.209216761         1.19523978        0.460198485        -5.41445577
             0.015        0.46087031         -5.7610785         0.20933369         1.49450523        0.208829248         1.48960533        0.460367656         -5.7321983
             0.016       0.460951097        -6.00099084        0.208978998         1.66851588        0.208490836         1.66191887        0.460347651        -5.97360817
             0.017        0.46085634        -6.17940455        0.208669938         1.74265492         0.20819787         1.73436112        0.460153553        -6.15377675
             0.018       0.460600643        -6.30778136        0.208402306         1.73393761        0.207946166         1.72394735        0.459799791         -6.2841075
             0.019       0.460192399        -6.39401043        0.208171535         1.65400461        0.207731173         1.64231821        0.459294609        -6.37244094
              0.02       0.459655932         -6.4466248        0.207975186         1.51599467        0.207550467         1.50261247        0.458662182        -6.42728436
             0.021       0.459002252        -6.47087611        0.207809611         1.32807738        0.207400416         1.31299971        0.457913406        -6.45386352
             0.022       0.458236755        -6.46984087        0.207671524         1.09546875        0.207277745         1.07869596        0.457053585        -6.45522796
             0.023       0.457375168        -6.44813202        0.207558631        0.825521213        0.207180171         0.80705365        0.456098351        -6.43598103
             0.024       0.456426539        -6.40877301        0.207468377        0.522932197         0.20710515        0.502770216        0.455056679        -6.39913418
             0.025       0.455399557        -6.35409835        0.207398967        0.191715987        0.207050894        0.169859947        0.453937192        -6.34701212
             0.026        0.45429334        -6.28515121        0.207346741       -0.166017296        0.207013753       -0.189567032        0.452738966        -6.28064278
             0.027       0.453132076        -6.20479567        0.207316001       -0.546050732        0.206998027       -0.571293796        0.451486094        -6.20289153
             0.028       0.451902964        -6.11415552        0.207296512       -0.945612186        0.206993501       -0.972548208          0.4501658        -6.11487714
             0.029       0.450627164        -6.01443733        0.207295331        -1.36344037        0.207007225        -1.39206897         0.44879914        -6.01779884
              0.03       0.449297104        -5.90612706        0.207306175        -1.79789107        0.207032928        -1.82821188         0.44737855        -5.91213564
             0.031       0.447917826        -5.79098873        0.207326558        -2.24622236        0.207068127        -2.27823499        0.445909061        -5.79965661
             0.032       0.446500972         -5.6686859        0.207361683         -2.7086197        0.207118025        -2.74232377        0.444402225        -5.68001124
             0.033       0.445781132        -5.69661124        0.207327786        -2.91496379        0.207091372        -2.95001996        0.443645306        -5.71914237
             0.034       0.445643369        -5.84443007        0.207232498        -2.91390711        0.206997188        -2.95003795        0.443514741        -5.88505649
             0.035       0.445491134         -5.9844554        0.207138883        -2.92419172        0.206904674        -2.96139719        0.443371049        -6.04305156
             0.036       0.445328309        -6.11809111        0.207046713        -2.94376013        0.206813603         -2.9820402        0.443218008        -6.19454843
             0.037       0.445162719        -6.24590482        0.206959824        -2.97217984        0.206727808        -3.01153447        0.443063297         -6.3401208
             0.038       0.444984985        -6.36744522        0.206875383        -3.00981251        0.206644457        -3.05024166        0.442897443        -6.47931592
             0.039       0.444803951        -6.48410792        0.206795294        -3.05489674        0.206565453        -3.09640037         0.44272921         -6.6135446
              0.04        0.44461056        -6.59596941        0.206715363         -3.1069469        0.206486607        -3.14952498        0.442549506        -6.74288731
             0.041       0.444411691        -6.70349116        0.206638534        -3.16552496         0.20641086        -3.20917745         0.44236511        -6.86781111
             0.042       0.444203907        -6.80688218        0.206563103        -3.23022919        0.206336507        -3.27495604        0.442172539        -6.98852925
             0.043       0.443983651        -6.90629262        0.206487355        -3.30066091         0.20626184        -3.34646208        0.441968192        -7.10519587
             0.044       0.443760529        -7.00226058        0.206415345        -3.37649514        0.206190905         -3.4233706        0.441761589        -7.21835424
             0.045       0.443534904        -7.09486348        0.206347262        -3.45747278        0.206123894        -3.50542247        0.441553038        -7.32808491
             0.046        0.44329806        -7.18430022        0.206278715        -3.54310393        0.206056418        -3.59212782        0.441333827        -7.43459088
             0.047       0.443059128        -7.27094592        0.206213454        -3.63304256        0.205992225        -3.68314058        0.441113023        -7.53825135
             0.048       0.442809505        -7.35480818        0.206147488        -3.72708244        0.205927327        -3.77825456        0.440882017        -7.63907618
             0.049       0.442557076        -7.43609047        0.206084571        -3.82512102        0.205865476         -3.8773672         0.44064862        -7.73727183
              0.05       0.442302502        -7.51503146        0.206024446        -3.92676983        0.205806413        -3.98009001        0.440413478        -7.83308014
             0.051       0.442038325        -7.59164487        0.205963673        -4.03183698        0.205746704        -4.08623111        0.440169131        -7.92651699
             0.052        0.44177098        -7.66620761         0.20590485        -4.14010321        0.205688942        -4.19557123        0.439921974          -8.017862
             0.053       0.441501536        -7.73884725        0.205848304        -4.25134934        0.205633454        -4.30789121        0.439673052        -8.10724506
             0.054       0.441226267         -7.8096274        0.205792187         -4.3653953        0.205578396        -4.42301097        0.439418635        -8.19473164
             0.055       0.440941284        -7.88433472         0.20574259        -4.47638151        0.205529434        -4.53469387         0.43916924        -8.28448298
             0.056       0.440621634        -8.00849878         0.20575167         -4.5386237        0.205535343         -4.5942393        0.439014958        -8.40897705
             0.057       0.440300939        -8.13095684        0.205762296        -4.60355148        0.205542796        -4.65647041        0.438859334        -8.53167173
             0.058       0.439973048        -8.25169694        0.205771514        -4.67096903        0.205548844        -4.72119136        0.438696246        -8.65256021
             0.059       0.439644552        -8.37109885        0.205781555        -4.74041746        0.205555713        -4.78794327        0.438532317        -8.77202734
              0.06       0.439316467         -8.4892694        0.205792761        -4.81177509        0.205563745        -4.85660447        0.438368572        -8.89018389
             0.061       0.438988891        -8.60629559         0.20580506        -4.88493106        0.205572869        -4.92706408        0.438205124        -9.00712044
             0.062       0.438658573        -8.72172803        0.205818719        -4.96055405        0.205583352        -4.99999081        0.438038658        -9.12239303
             0.063       0.438328536        -8.83611071        0.205833344        -5.03780084        0.205594799        -5.07454141        0.437872279        -9.23654775
             0.064       0.437997064        -8.94951581        0.205847939        -5.11652088        0.205606216        -5.15056536        0.437704286        -9.34965944
             0.065       0.437660921        -9.06184015        0.205861429        -5.19683195         0.20561653        -5.22818042        0.437531428        -9.46162843
             0.066       0.437322374        -9.17285624        0.205876037        -5.27914092        0.205627959        -5.30779347        0.437355938        -9.57223272
             0.067       0.436984652        -9.28310863        0.205891386        -5.36265088        0.205640129         -5.3886076        0.437181119        -9.68201591
             0.068       0.436647751         -9.3926459        0.205907387        -5.44728714         0.20565295        -5.47054812        0.437006974        -9.79102845
             0.069       0.436301733         -9.5008024        0.205921789        -5.53392727        0.205664173        -5.55449262        0.436823476        -9.89861351
              0.07        0.43595966        -9.60836951        0.205938218         -5.6215636         0.20567742         -5.6394334        0.436643795        -10.0055583
             0.071       0.435621461        -9.71539456        0.205956508        -5.71011002        0.205692527        -5.72528437         0.43646787        -10.1119112
             0.072       0.435274098        -9.82113229        0.205973189        -5.80052115        0.205706025        -5.81300015        0.436282558         -10.216938
             0.073       0.434928009        -9.92638639        0.205990347        -5.89169338            0.20572        -5.90147713        0.436098408        -10.3214348
             0.074       0.434581947        -10.0310108        0.206008099        -5.98386439        0.205734569        -5.99095298        0.435914156        -10.4252597
             0.075        0.43423366        -10.1347118        0.206026655        -6.07747162        0.205749939        -6.08186516        0.435727511        -10.5281258
             0.076       0.433886939        -10.2380266        0.206045613         -6.1716743        0.205765711        -6.17337289        0.435542339        -10.6305631
             0.077       0.433538234        -10.3405265        0.206065291        -6.26718515        0.205782201         -6.2661889         0.43535503        -10.7321528
             0.078       0.433280617        -10.4699319        0.206043019        -6.34769354        0.205754989        -6.34697436        0.435246362        -10.8397761
             0.079       0.433072283        -10.6136038        0.205997835        -6.42039266        0.205703925        -6.42155084        0.435179776        -10.9504167
              0.08       0.432866563        -10.7564942         0.20595524        -6.49437678        0.205655446        -6.49741243        0.435115158        -11.0602559
             0.081        0.43266387        -10.8991004        0.205912984        -6.56873723        0.205607307        -6.57365044        0.435052983        -11.1697808
             0.082       0.432454323        -11.0407776        0.205869258         -6.6444224        0.205557701        -6.65121327        0.434983301        -11.2783609
             0.083       0.432246873        -11.1821372        0.205825742        -6.72054064        0.205508305        -6.72920924        0.434915157        -11.3865967
             0.084       0.432038677        -11.3228689        0.205782684        -6.79761327        0.205459368        -6.80815972          0.4348457        -11.4941862
             0.085       0.431831109        -11.4631406        0.205739949        -6.87534461        0.205410754        -6.88776899        0.434776336        -11.6012944
             0.086       0.431624022        -11.6029531        0.205697535        -6.95373556        0.205362462        -6.96803796        0.434706931        -11.7079236
             0.087       0.431416326        -11.7422223        0.205655511        -7.03295432        0.205314559        -7.04913482         0.43463641        -11.8139928
             0.088       0.431209932        -11.8811684        0.205613698        -7.11262676        0.205266869        -7.13068546        0.434566705        -11.9197181
             0.089       0.430998865         -12.019477        0.205570773        -7.19321533        0.205218069        -7.21315231        0.434491826        -12.0247926
              0.09        0.43078856        -12.1575355        0.205527456        -7.27410879        0.205168879        -7.29592414        0.434417237        -12.1295964
             0.091       0.430579957        -12.2950251        0.205486265        -7.35594834        0.205121811        -7.37964215        0.434343938        -12.2338198
             0.092       0.430374398        -12.4323385        0.205445586        -7.43800749        0.205075256        -7.46357984        0.434273255        -12.3378466
             0.093       0.430163316        -12.5690229        0.205403708        -7.52099467        0.205027505        -7.54844564        0.434196607        -12.4412348
             0.094       0.429953616        -12.7055319        0.205361556        -7.60417345        0.204979481        -7.63350312        0.434120914        -12.5444287
             0.095       0.429745462        -12.8415399        0.205321402        -7.68821591        0.204933453        -7.71942436        0.434046418        -12.6471119
             0.096        0.42954005        -12.9773808        0.205281761        -7.77247258        0.204887937        -7.80555989        0.433974278        -12.7496107
             0.097       0.429330146        -13.1127014        0.205241082        -7.85746631        0.204841386        -7.89243256        0.433897255        -12.8515798
             0.098       0.429120349        -13.2477924        0.205199996        -7.94273549        0.204794429        -7.97958077        0.433819955        -12.9533045
             0.099       0.428909867        -13.3825065        0.205159218        -8.02860918        0.204747781        -8.06733355        0.433741625        -13.0546417
               0.1        0.42875953        -13.5192927        0.205099354        -8.11167421        0.204681519        -8.15246183        0.433661467        -13.1574962
             0.101       0.428848038         -13.665095        0.204962541        -8.18236089        0.204536197         -8.2259482        0.433573294         -13.267221
             0.102       0.428936041        -13.8104916        0.204825968        -8.25358584        0.204391116        -8.29997297        0.433484272        -13.3765878
             0.103       0.429025612        -13.9556638        0.204689474        -8.32502127        0.204246115        -8.37420838        0.433396456        -13.4857738
             0.104       0.429113508        -14.1003486         0.20455332         -8.3971623        0.204101453        -8.44914952         0.43330666        -13.5945189
             0.105       0.429204189        -14.2449249        0.204417136         -8.4693031        0.203956763        -8.52409059        0.433219281        -13.7031963
             0.106       0.429291805        -14.3889398        0.204281369        -8.54231968         0.20381249        -8.59990758        0.433128574        -13.8113569
             0.107       0.429381909        -14.5328357        0.204145587        -8.61536234        0.203668203        -8.67575078        0.433040004        -13.9194383
             0.108       0.429470897        -14.6763481        0.204010063        -8.68896557        0.203524175         -8.7521547         0.43295004        -14.0271768
             0.109       0.429560516        -14.8196155        0.203874659        -8.76285637        0.203380266        -8.82884632        0.432860403        -14.1347093
              0.11       0.429649879        -14.9626461         0.20373885        -8.83699192        0.203235956        -8.90578285        0.432770201        -14.2420435
             0.111       0.429735222        -15.1052693         0.20360214        -8.91169597        0.203090747        -8.98328801        0.432675717        -14.3490072
             0.112       0.429822992        -15.2477914        0.203465407        -8.98640019        0.202945516        -9.06079348         0.43258334        -14.4559075
             0.113       0.429911579        -15.3899027        0.203330499         -9.0617881        0.202802107        -9.13898278         0.43249159        -14.5624312
             0.114       0.430002296        -15.5318764        0.203195799        -9.13726161        0.202658905         -9.2172578        0.432401673        -14.6688537
             0.115       0.430091495        -15.6735927        0.203060551        -9.21305284        0.202515159         -9.2958507        0.432309977        -14.7750527
             0.116       0.430177734        -15.8149991        0.202924573        -9.28927574        0.202370685        -9.37487539        0.432215087        -14.8809738
             0.117       0.430266194        -15.9563083        0.202788575        -9.36549904        0.202226193        -9.45390062        0.432122125        -14.9868336
             0.118       0.430352052         -16.097242          0.2026529        -9.44236593        0.202082024        -9.53356957        0.432026389        -15.0923456
             0.119       0.430439539        -16.2380523        0.202517245        -9.51930085        0.201937875        -9.61330669        0.431932011         -15.197768
              0.12       0.430528603        -16.3786692        0.202382216        -9.59646374        0.201794352        -9.69327191        0.431838979        -15.3030287
             0.121       0.430618628         -16.518996        0.202248472        -9.67408695         0.20165211        -9.77369758        0.431746731        -15.4080265
             0.122       0.430710685        -16.6592293        0.202114709        -9.75171073        0.201509852        -9.85412394        0.431656241        -15.5129649
             0.123       0.430828811        -16.7742835        0.202030683        -9.82569295        0.201431824        -9.92760842        0.431517826         -15.624221
             0.124       0.430956114        -16.8808668        0.201963158        -9.89850427        0.201375129        -9.99882167        0.431364043        -15.7375326
