! Created Tue Apr 16 19:43:26 2013
# ghz S ma R 50
! 2 Port Network Data from SP1.SP block
! freq  magS11  angS11  magS21  angS21  magS12  angS12  magS22  angS22  
!     
              0.01       0.907093095        -1.47646458     0.000936636375          58.820498     0.000983659704         55.1110923        0.905871953        -1.44149875
             0.011       0.906963943        -1.56205282      0.00100388152         57.6038453      0.00105155225          53.968108        0.905685039        -1.52992583
             0.012         0.9068251        -1.64527588      0.00107146235         56.3354826      0.00111979074         52.7755161        0.905489307        -1.61594472
             0.013       0.906684147          -1.726379      0.00113939332         55.0285015      0.00118838629         51.5460043        0.905292128        -1.69981041
             0.014       0.906523267        -1.80603462      0.00120766944         53.6908578         0.00125733         50.2872161        0.905075562        -1.78220101
             0.015        0.90636397        -1.88431977      0.00127632009         52.3304653      0.00132664899         49.0067969        0.904860985        -1.86320012
             0.016       0.906199107         -1.9616353      0.00134535006         50.9519301      0.00139634498         47.7091422        0.904641178        -1.94321213
             0.017        0.90603184         -2.0381034       0.0014147743         49.5592727      0.00146643036         46.3980944         0.90441924        -2.02236234
             0.018       0.905861924         -2.1138399      0.00148460399         48.1555555       0.0015369138         45.0765661        0.904194881        -2.10076896
             0.019       0.905682741        -2.18903708      0.00155484523         46.7427284      0.00160779881          43.746383        0.903961455        -2.17862548
              0.02       0.905505751        -2.26376742       0.0016255202         45.3233761      0.00167910568         42.4100148        0.903730377        -2.25600693
             0.021       0.905328688        -2.33812017      0.00169663756         43.8989668       0.0017508408         41.0688353        0.903499363        -2.33300363
             0.022       0.905145808        -2.41205006      0.00176820389         42.4705015      0.00182300858         39.7237653        0.903262655        -2.40957058
             0.023       0.904962204        -2.48561706      0.00184023296           41.03943      0.00189562092         38.3761784        0.903025326        -2.48576921
             0.024       0.904777363        -2.55896476      0.00191273376         39.6065694      0.00196868497          37.026827        0.902786849        -2.56174384
             0.025        0.90459242        -2.63208058      0.00198571781         38.1727538      0.00204221052         35.6764872         0.90254835        -2.63748249
             0.026          0.904396        -2.70493361      0.00205917519         36.7383606      0.00211618549         34.3254875         0.90229846        -2.71295409
             0.027       0.904217939        -2.77769404      0.00213317448         35.3043818       0.0021906785         32.9747696         0.90206695        -2.78833031
             0.028       0.904020817        -2.85015183      0.00220763558         33.8711964      0.00226560573         31.6246735        0.901816478        -2.86340086
             0.029       0.903839079        -2.92260416      0.00228265194         32.4391808      0.00234106144         30.2755372          0.9015814        -2.93846366
              0.03       0.903649677        -2.99485869      0.00235817634         31.0086371      0.00241699577         28.9276308        0.901338716        -3.01332608
             0.031       0.903450065        -3.06700785      0.00243419839         29.5800128      0.00249339686         27.5813708         0.90108589        -3.08808124
             0.032       0.903262167        -3.13899979      0.00251079249         28.1535642      0.00257033962         26.2369866        0.900844777        -3.16267725
             0.033       0.903155303        -3.22040276      0.00253106231         27.0772279       0.0025925367         25.0898426        0.900705876        -3.25199049
             0.034        0.90310894        -3.30936331      0.00250510332         26.2782205      0.00256987938         24.0956842        0.900644972        -3.35319976
             0.035        0.90305506        -3.39819199      0.00247937478         25.4691915      0.00254753522         23.0923173        0.900576777        -3.45427246
             0.036        0.90299669        -3.48689028      0.00245387996         24.6504018      0.00252550784         22.0801383        0.900504303        -3.55521084
             0.037       0.902950085        -3.57559496      0.00242866869          23.821834      0.00250384856         21.0592719        0.900443746        -3.65615221
             0.038       0.902899964        -3.66419736      0.00240371336          22.983296      0.00248252894         20.0296798        0.900379839        -3.75698772
             0.039       0.902858939         -3.7528062      0.00237904115         22.1349792      0.00246157692         18.9917077        0.900325161        -3.85782683
              0.04       0.902808691        -3.84129332      0.00235460975         21.2768254      0.00244094847         17.9454642        0.900261429        -3.95854127
             0.041       0.902762514        -3.92974026      0.00233045809         20.4088395      0.00242068327          16.891124        0.900201893        -4.05921302
             0.042       0.902713155        -4.01811829      0.00230657268          19.530958      0.00240076665         15.8288031        0.900139308        -4.15981343
             0.043       0.902653183        -4.10636417      0.00228294038          18.643149      0.00238118398         14.7586565        0.900066253        -4.26027934
             0.044       0.902601075        -4.19464779      0.00225961128         17.7453705      0.00236198623         13.6808299        0.900001152        -4.36078112
             0.045       0.902557586        -4.28291141      0.00223659206         16.8376295      0.00234317921         12.5955282        0.899944746        -4.46126117
             0.046       0.902504111        -4.37109737      0.00221384097         15.9198315      0.00232471786         11.5028652        0.899878478        -4.56166177
             0.047       0.902458014        -4.45927415      0.00219140321         14.9920187      0.00230664775         10.4030889        0.899819659        -4.66205172
             0.048       0.902401791        -4.54738255      0.00216924289         14.0540713      0.00228892929         9.29630025        0.899750827        -4.76237172
             0.049       0.902351571        -4.63548592      0.00214740361         13.1060095      0.00227160613         8.18273606        0.899688061        -4.86268553
              0.05        0.90230737        -4.72357411      0.00212588779          12.147833      0.00225467858         7.06262092        0.899631374        -4.96298303
             0.051       0.902253996        -4.81159346      0.00210466599         11.1794536      0.00223811292         5.93610253         0.89956561        -5.06321053
             0.052       0.902203593        -4.89961185      0.00208376966         10.2008855      0.00222193955         4.80342429        0.899502879        -5.16343608
             0.053       0.902157869        -4.98761707      0.00206320648         9.21214468      0.00220616367         3.66483793         0.89944488        -5.26364758
             0.054       0.902108909        -5.07558341      0.00204296352         8.21319094      0.00219076818         2.52054638        0.899383719        -5.36381928
             0.055       0.902044366        -5.16375949      0.00202311162         7.28915218      0.00217567581          1.4574057         0.89931593        -5.46305641
             0.056       0.901879115        -5.25414121      0.00200402466         7.12318278      0.00216009705         1.16857702        0.899227386        -5.55420591
             0.057       0.901716688         -5.3445406       0.0019849406         6.95058617      0.00214456772        0.874383034        0.899141621        -5.64537021
             0.058       0.901544349        -5.43488463       0.0019658349         6.77118256      0.00212906074        0.574735027         0.89904593        -5.73647631
             0.059       0.901373551        -5.52520802      0.00194672997          6.5848957      0.00211359977         0.26963714        0.898951749        -5.82755886
              0.06       0.901206072         -5.6155258      0.00192763129         6.39155343      0.00209819011      -0.0409914732        0.898860853        -5.91863303
             0.061       0.901041849         -5.7058471      0.00190854069         6.19096606      0.00208283306       -0.357242817        0.898773184        -6.00970802
             0.062        0.90087845        -5.79617203      0.00188946415         5.98287004      0.00206753401       -0.679275262        0.898686297        -6.10078488
             0.063       0.900717794        -5.88648957      0.00187039964         5.76715182      0.00205229036        -1.00709551        0.898602127        -6.19185191
             0.064       0.900555912        -5.97678676      0.00185134132         5.54358919      0.00203709487        -1.34080734        0.898516716        -6.28289616
             0.065       0.900387214        -6.06705369      0.00183228374         5.31191747      0.00202194044        -1.68054848         0.89842448          -6.373908
             0.066       0.900219083        -6.15731084      0.00181324945          5.0719274      0.00200685052        -2.02640727        0.898332777        -6.46490866
             0.067       0.900053669        -6.24756606      0.00179423699         4.82343808      0.00199182291        -2.37843138        0.898243773        -6.55590518
             0.068       0.899890758        -6.33781965      0.00177524867         4.56620171      0.00197685911        -2.73672621        0.898157255         -6.6468979
             0.069       0.899715697        -6.42803447      0.00175627241         4.29983639      0.00196194364        -3.10150899        0.898058572        -6.73785097
              0.07       0.899549312        -6.51826729      0.00173733788         4.02424519      0.00194710898        -3.47274069         0.89796854        -6.82882004
             0.071       0.899391145        -6.60851334      0.00171844674         3.73915372      0.00193235575         -3.8505299        0.897886706        -6.91980032
             0.072       0.899220756        -6.69872281      0.00169957897          3.4441202      0.00191765907        -4.23512111        0.897792635         -7.0107435
             0.073       0.899052855        -6.78892628      0.00168075157         3.13897809      0.00190303732        -4.62651161         0.89770104         -7.1016787
             0.074       0.898886547        -6.87913214         0.00166197         2.82339835      0.00188849471        -5.02483713        0.897611024        -7.19261478
             0.075       0.898720225        -6.96934095      0.00164324124         2.49704567      0.00187403685        -5.43023076        0.897520972        -7.28355314
             0.076       0.898556491        -7.05953796      0.00162456432         2.15963189      0.00185966149        -5.84276601          0.8974335        -7.37447777
             0.077       0.898392763        -7.14975273      0.00160594801          1.8107684      0.00184537577        -6.26260933        0.897346014        -7.46541952
             0.078       0.898209964        -7.25505108      0.00159629291         1.44885996      0.00184067235        -6.82376935        0.897234053        -7.55658605
             0.079       0.898016124        -7.36845983       0.0015914706         1.08276084      0.00184121472        -7.45767895        0.897108059        -7.64786071
              0.08       0.897830683        -7.48191588      0.00158670539        0.714994582      0.00184192334         -8.0906824        0.896990348        -7.73918136
             0.081       0.897648698        -7.59535895      0.00158197954        0.345554943      0.00184277767        -8.72268603        0.896875998         -7.8304865
             0.082       0.897456612        -7.70878742      0.00157728459      -0.0256368516      0.00184376517        -9.35367306        0.896751446        -7.92177598
             0.083       0.897266811        -7.82220555      0.00157262943       -0.398493161      0.00184489621         -9.9834906        0.896629089        -8.01305291
             0.084       0.897077237        -7.93563501      0.00156801793       -0.773015961      0.00184617326        -10.6120677        0.896506862        -8.10433973
             0.085       0.896888863        -8.04905855       0.0015634487        -1.14918335       0.0018475938        -11.2393055        0.896385746        -8.19561891
             0.086       0.896701556        -8.16247694      0.00155892221        -1.52698494      0.00184915698        -11.8651206        0.896265609        -8.28689133
             0.087       0.896514454        -8.27590581      0.00155443986        -1.90641491       0.0018508628        -12.4894377        0.896145591        -8.37817282
             0.088       0.896328927        -8.38932862      0.00154999965        -2.28746096      0.00185270807        -13.1121715        0.896027066        -8.46944661
             0.089       0.896136249        -8.50274416      0.00154559545        -2.67015399      0.00185468296        -13.7332715        0.895901309        -8.56071185
              0.09       0.895943216        -8.61613979       0.0015412301        -3.05445802      0.00185679049        -14.3526401        0.895775118        -8.65195562
             0.091       0.895756714        -8.72957147      0.00153692215        -3.44027461      0.00185905042        -14.9701543         0.89565538        -8.74323422
             0.092       0.895574156        -8.84299127      0.00153265908        -3.82764859      0.00186144756        -15.5857717        0.895539512        -8.83449951
             0.093       0.895383456        -8.95641163      0.00152843354        -4.21661344       0.0018639696        -16.1994495        0.895415428        -8.92576412
             0.094       0.895193275        -9.06981142      0.00152424892        -4.60713836      0.00186662067        -16.8111045        0.895291791         -9.0170069
             0.095       0.895009212        -9.18325461      0.00152012206        -4.99912136      0.00186941853         -17.420624        0.895174205        -9.10829181
             0.096       0.894828833        -9.29668923      0.00151604161          -5.392611      0.00187234907        -18.0279747        0.895060234        -9.19956705
             0.097       0.894641655        -9.41011158      0.00151200078        -5.78761196      0.00187540058        -18.6330947        0.894939397        -9.29082875
             0.098       0.894453496        -9.52351352      0.00150800201         -6.1841134      0.00187857556        -19.2359277        0.894817513        -9.38206901
             0.099       0.894265338        -9.63693391      0.00150405133        -6.58207067      0.00188187898        -19.8364023        0.894695567        -9.47332653
               0.1       0.894101506        -9.75300053      0.00149737674        -7.13653993      0.00188603768        -20.5802974        0.894578633        -9.56631509
             0.101       0.894032176        -9.87963469      0.00147991919        -8.32494339      0.00189336481        -21.8991503        0.894479121        -9.66621383
             0.102       0.893962827        -10.0062736       0.0014629417        -9.53526367      0.00190101745        -23.2055251        0.894379507        -9.76611663
             0.103       0.893895022        -10.1328987        0.001446456        -10.7675939      0.00190898074        -24.4992509        0.894281353        -9.86600546
             0.104       0.893826371        -10.2595422      0.00143047952        -12.0218743      0.00191724452        -25.7801261        0.894182276         -9.9659116
             0.105       0.893760144        -10.3861589      0.00141502152        -13.2981391      0.00192579149        -27.0480592        0.894085538        -10.0657913
             0.106        0.89369195        -10.5128113      0.00140010181        -14.5961388      0.00193461328        -28.3028656         0.89398676        -10.1657052
             0.107       0.893625944        -10.6394394      0.00138572901        -15.9158091      0.00194369222        -29.5445162        0.893890091        -10.2655953
             0.108        0.89355942        -10.7660873       0.0013719205        -17.2568018      0.00195301804        -30.7728986         0.89379283        -10.3655041
             0.109        0.89349368        -10.8927333      0.00135868847         -18.618818      0.00196257632        -31.9879816        0.893696278        -10.4654109
              0.11       0.893426635        -11.0193665      0.00134604404        -20.0014543      0.00197235013        -33.1897371        0.893598346        -10.5653048
             0.111       0.893353568        -11.1460062      0.00133399955        -21.4041439      0.00198232306        -34.3781188        0.893494326         -10.665204
             0.112       0.893282626        -11.2726202      0.00132257048        -22.8263861      0.00199248872        -35.5531831        0.893392354        -10.7650785
             0.113       0.893216771        -11.3992755      0.00131177954        -24.2672969      0.00200284907        -36.7148761        0.893295407        -10.8649925
             0.114       0.893153326        -11.5259139      0.00130162976        -25.7262801       0.0020133791         -37.863304        0.893200797        -10.9648902
             0.115       0.893087048        -11.6525499       0.0012921301         -27.202426      0.00202406068        -38.9984916        0.893103288        -11.0647852
             0.116        0.89301614        -11.7791934      0.00128329105        -28.6947388      0.00203488015         -40.120485        0.893001085        -11.1646867
             0.117       0.892947184        -11.9058116        0.001275125        -30.2022773      0.00204583143        -41.2294103        0.892900766        -11.2645642
             0.118       0.892876468        -12.0324721      0.00126764364        -31.7237122      0.00205690482        -42.3252803        0.892798627        -11.3644818
             0.119       0.892807245        -12.1591151      0.00126085328        -33.2579989      0.00206808705        -43.4082573        0.892697915        -11.4643829
              0.12       0.892740952        -12.2857569      0.00125476407         -34.803788      0.00207937164        -44.4784304         0.89260007        -11.5642827
             0.121       0.892678618        -12.4124226      0.00124938498        -36.3596315      0.00209075249        -45.5358888        0.892506125        -11.6642052
             0.122       0.892618076        -12.5390634      0.00124471585        -37.9242675      0.00210220899        -46.5808074        0.892413906        -11.7641042
             0.123       0.892547173        -12.6375288      0.00123541382        -39.1905959      0.00210946826        -47.5557817        0.892235903        -11.8582349
             0.124       0.892473133        -12.7265904      0.00122497476        -40.3775569       0.0021154039        -48.5021498        0.892029645        -11.9504328
