! Created Tue Apr 16 20:09:51 2013
# ghz S ma R 50
! 2 Port Network Data from SP1.SP block
! freq  magS11  angS11  magS21  angS21  magS12  angS12  magS22  angS22  
!     
               0.1       0.804851595        -16.0013864       0.0393459827        -94.1448581        0.031281528        -90.6559315         0.80838918        -19.4174863
             0.101       0.807049762        -16.1377751       0.0395749704        -94.1173349         0.03103688        -90.6500804        0.810479713        -19.5437776
             0.102       0.809206973        -16.2828397       0.0397908382        -94.0969888       0.0307952055        -90.6515567         0.81253214        -19.6784151
             0.103       0.811323881        -16.4359398       0.0399941472        -94.0833004       0.0305565268        -90.6598398        0.814547003        -19.8207888
             0.104       0.813401149        -16.5964805       0.0401854362        -94.0757852       0.0303208603        -90.6744443        0.816524864        -19.9703316
             0.105       0.815439457        -16.7639083       0.0403652225        -94.0739914       0.0300882164        -90.6949175          0.8184663        -20.1265165
             0.106        0.81743949        -16.9377091       0.0405340032        -94.0774977       0.0298586002        -90.7208374        0.820371904        -20.2888536
             0.107       0.819401938        -17.1174044       0.0406922552        -94.0859109       0.0296320125        -90.7518102        0.822242278        -20.4568874
             0.108       0.821327496        -17.3025492       0.0408404367        -94.0988647       0.0294084496        -90.7874688         0.82407803        -20.6301945
             0.109       0.823216859        -17.4927299       0.0409789872        -94.1160171       0.0291879042        -90.8274706        0.825879775        -20.8083812
              0.11       0.825070717        -17.6875615        0.041108329        -94.1370491       0.0289703656         -90.871496        0.827648129        -20.9910811
             0.111       0.826889762        -17.8866857       0.0412288671        -94.1616633       0.0287558202         -90.919247        0.829383708        -21.1779536
             0.112       0.828674678        -18.0897694       0.0413409903        -94.1895822       0.0285442514        -90.9704452        0.831087127        -21.3686819
             0.113       0.830426145        -18.2965025       0.0414450717         -94.220547       0.0283356404        -91.0248312        0.832758999        -21.5629711
             0.114       0.832144833        -18.5065964       0.0415414694        -94.2543161       0.0281299663        -91.0821628        0.834399935        -21.7605471
             0.115        0.83383141        -18.7197828        0.041630527        -94.2906645       0.0279272061         -91.142214        0.836010537        -21.9611547
             0.116       0.835486529        -18.9358117       0.0417125741         -94.329382       0.0277273351         -91.204774        0.837591405        -22.1645568
             0.117       0.837110839        -19.1544506        0.041787927        -94.3702728       0.0275303271        -91.2696458         0.83914313        -22.3705324
             0.118       0.838704978        -19.3754833       0.0418568893        -94.4131543       0.0273361548         -91.336646        0.840666298        -22.5788761
             0.119       0.840269571        -19.5987085       0.0419197519         -94.457856       0.0271447893        -91.4056033        0.842161485         -22.789397
              0.12       0.841805238        -19.8239388       0.0419767942        -94.5042193       0.0269562011        -91.4763576        0.843629262        -23.0019172
             0.121       0.843312584            -20.051       0.0420282841         -94.552096       0.0267703595        -91.5487599        0.845070186        -23.2162715
             0.122       0.844792205        -20.2797301       0.0420744785        -94.6013483       0.0265872331         -91.622671        0.846484812         -23.432306
             0.123       0.846570003        -20.5056683       0.0421679568        -94.8266972       0.0267504038        -91.6586595        0.848097191         -23.707842
             0.124       0.848419628        -20.7317285       0.0422720948        -95.1103225       0.0270195347        -91.6817207        0.849750487        -24.0019582
             0.125       0.850232078        -20.9592353       0.0423694633        -95.3937016       0.0272788116        -91.7047149        0.851369829        -24.2949849
             0.126       0.852008233        -21.1880597       0.0424603537        -95.6767668       0.0275285841        -91.7275665        0.852956054         -24.586893
             0.127       0.853748952        -21.4180817       0.0425450463        -95.9594561       0.0277691894        -91.7502064        0.854509976        -24.8776581
             0.128       0.855455073        -21.6491895       0.0426238106        -96.2417133       0.0280009534        -91.7725713        0.856032386        -25.1672602
             0.129       0.857127415        -21.8812792       0.0426969058        -96.5234875       0.0282241906        -91.7946039        0.857524058        -25.4556834
              0.13       0.858766777        -22.1142542       0.0427645809        -96.8047324       0.0284392048        -91.8162519        0.858985741        -25.7429153
             0.131       0.860373937        -22.3480244       0.0428270755        -97.0854065       0.0286462893        -91.8374678        0.860418168         -26.028947
             0.132       0.861949655        -22.5825064       0.0428846197        -97.3654722       0.0288457272        -91.8582085        0.861822051        -26.3137724
             0.133       0.863494672        -22.8176225       0.0429374347        -97.6448959       0.0290377919        -91.8784351        0.863198081        -26.5973883
             0.134       0.865009712        -23.0533005       0.0429857332        -97.9236476       0.0292227472        -91.8981127        0.864546933         -26.879794
             0.135       0.866495477        -23.2894735       0.0430297196        -98.2017008       0.0294008479        -91.9172096        0.865869264        -27.1609911
             0.136       0.867952657        -23.5260793       0.0430695902        -98.4790318       0.0295723399        -91.9356976        0.867165712        -27.4409832
             0.137       0.869381919        -23.7630604       0.0431055337          -98.75562       0.0297374604        -91.9535515        0.868436899        -27.7197758
             0.138       0.870783916        -24.0003634       0.0431377315        -99.0314474       0.0298964385        -91.9707488        0.869683429        -27.9973761
             0.139       0.872159285        -24.2379387       0.0431663579        -99.3064986       0.0300494953        -91.9872698         0.87090589         -28.273793
              0.14       0.873508646        -24.4757407       0.0431915804        -99.5807604       0.0301968443         -92.003097        0.872104855        -28.5490364
             0.141       0.874832603        -24.7137269       0.0432135597        -99.8542216       0.0303386915        -92.0182152        0.873280881        -28.8231178
             0.142       0.876131745        -24.9518585       0.0432324504        -100.126873       0.0304752357        -92.0326112         0.87443451        -29.0960497
             0.143       0.877406644        -25.1900993       0.0432484011        -100.398708       0.0306066688        -92.0462739         0.87556627        -29.3678455
             0.144       0.878657861         -25.428416       0.0432615545        -100.669721       0.0307331761        -92.0591938        0.876676673        -29.6385196
             0.145       0.879870179        -25.6628791       0.0433623958        -100.978994       0.0308760869        -92.2016843        0.877814925        -29.9018256
             0.146       0.881024154        -25.8884613       0.0436670171        -101.378933       0.0310628596        -92.6477792        0.879044246        -30.1497884
             0.147       0.882157608         -26.114335       0.0439624517        -101.778476       0.0312438435        -93.0935256        0.880250353        -30.3972133
             0.148       0.883271009        -26.3404678       0.0442490047        -102.177606       0.0314192331        -93.5389014        0.881433803           -30.6441
             0.149       0.884364808        -26.5668296       0.0445269713         -102.57631       0.0315892166         -93.983887        0.882595139        -30.8904492
              0.15       0.885439447        -26.7933926        0.044796637        -102.974573       0.0317539759        -94.4284652        0.883734889        -31.1362625
             0.151       0.886495357         -27.020131       0.0450582783        -103.372386       0.0319136871        -94.8726203        0.884853566        -31.3815427
             0.152       0.887532957         -27.247021       0.0453121626        -103.769738       0.0320685204        -95.3163391        0.885951669        -31.6262932
             0.153       0.888552655        -27.4740404       0.0455585486        -104.166622       0.0322186404        -95.7596097        0.887029683        -31.8705184
             0.154       0.889554849        -27.7011688       0.0457976868         -104.56303       0.0323642064        -96.2024219         0.88808808        -32.1142231
             0.155       0.890539927        -27.9283875       0.0460298195        -104.958958       0.0325053724        -96.6447673        0.889127319        -32.3574131
             0.156       0.891508265        -28.1556791       0.0462551812        -105.354402       0.0326422873        -97.0866384        0.890147848        -32.6000945
             0.157       0.892460233        -28.3830277       0.0464739988        -105.749358       0.0327750953        -97.5280295          0.8911501        -32.8422741
             0.158       0.893396188        -28.6104187        0.046686492        -106.143824       0.0329039359        -97.9689357        0.892134497        -33.0839591
             0.159        0.89431648        -28.8378388       0.0468928734          -106.5378       0.0330289437        -98.4093535        0.893101451        -33.3251571
              0.16       0.895221449        -29.0652758       0.0470933487        -106.931285       0.0331502494        -98.8492803        0.894051361        -33.5658762
             0.161       0.896111427        -29.2927185        0.047288117         -107.32428       0.0332679791        -99.2887145        0.894984618        -33.8061248
             0.162       0.896986737        -29.5201569       0.0474773713        -107.716786       0.0333822549        -99.7276554        0.895901598        -34.0459115
             0.163       0.897847694        -29.7475818       0.0476612979        -108.108805       0.0334931949        -100.166103        0.896802671        -34.2852454
             0.164       0.898694606         -29.974985       0.0478400778        -108.500341       0.0336009136        -100.604059        0.897688194        -34.5241357
             0.165       0.899527771        -30.2023592       0.0480138856        -108.891395       0.0337055214        -101.041523        0.898558517        -34.7625919
             0.166       0.900347481        -30.4296977       0.0481828909        -109.281973       0.0338071254          -101.4785         0.89941398        -35.0006235
             0.167       0.901154021        -30.6569947       0.0483472576        -109.672078       0.0339058293        -101.914991        0.900254912        -35.2382403
             0.168       0.901729062        -30.8706085       0.0487104405         -110.11963       0.0341364955         -102.46739         0.90079555        -35.4088796
             0.169       0.902257881        -31.0820474         0.04910151        -110.578084       0.0343858084        -103.041097        0.901278922        -35.5688371
              0.17       0.902779603        -31.2937298       0.0494845247        -111.037287       0.0346299366        -103.615642        0.901756205        -35.7299495
             0.171       0.903294362        -31.5056451       0.0498597135        -111.497213       0.0348690253        -104.190995        0.902227506         -35.892186
             0.172       0.903802288        -31.7177832       0.0502272985        -111.957839       0.0351032161        -104.767125        0.902692927        -36.0555169
             0.173       0.904303509        -31.9301352       0.0505874958        -112.419142       0.0353326461        -105.344006        0.903152566        -36.2199141
             0.174       0.904798149        -32.1426925       0.0509405152        -112.881101       0.0355574487        -105.921611        0.903606523        -36.3853505
             0.175       0.905286329        -32.3554473       0.0512865605        -113.343696       0.0357777533        -106.499917        0.904054892           -36.5518
             0.176       0.905768166        -32.5683924       0.0516258297        -113.806907       0.0359936856        -107.078901        0.904497766        -36.7192379
             0.177       0.906243776        -32.7815213       0.0519585152        -114.270717       0.0362053678        -107.658542        0.904935236        -36.8876403
             0.178       0.906713269        -32.9948279       0.0522848042         -114.73511       0.0364129187         -108.23882         0.90536739        -37.0569843
             0.179       0.907176756        -33.2083067       0.0526048783        -115.200069       0.0366164535        -108.819716        0.905794316        -37.2272482
              0.18       0.907634342        -33.4219526       0.0529189143        -115.665579       0.0368160844        -109.401213        0.906216097        -37.3984108
             0.181       0.908086129        -33.6357611       0.0532270838        -116.131627       0.0370119201        -109.983295        0.906632816        -37.5704521
             0.182        0.90853222         -33.849728       0.0535295539          -116.5982       0.0372040667        -110.565947        0.907044553        -37.7433529
             0.183       0.908972712        -34.0638496       0.0538264869        -117.065285       0.0373926269        -111.149153        0.907451387        -37.9170946
             0.184         0.9094077        -34.2781226       0.0541180407         -117.53287       0.0375777008        -111.732902        0.907853394        -38.0916596
             0.185       0.909837278        -34.4925442       0.0544043688        -118.000945       0.0377593857        -112.317181         0.90825065        -38.2670308
             0.186       0.910261537        -34.7071115       0.0546856204        -118.469499       0.0379377761        -112.901979        0.908643225        -38.4431921
             0.187       0.910680564        -34.9218225       0.0549619408        -118.938523       0.0381129639        -113.487284        0.909031193        -38.6201277
             0.188       0.911094445        -35.1366751       0.0552334713        -119.408008       0.0382850387        -114.073087        0.909414622        -38.7978228
             0.189       0.911503265        -35.3516677       0.0555003493        -119.877945       0.0384540874         -114.65938         0.90979358         -38.976263
              0.19       0.911777508        -35.5642129       0.0558000342          -120.3972       0.0386531906        -115.307771        0.910012811        -39.1453294
             0.191       0.911856424        -35.7730914       0.0561505041        -120.990619       0.0388981341        -116.049542        0.909999145        -39.3002351
             0.192       0.911936086        -35.9822121       0.0564955678        -121.585057       0.0391391817        -116.792449        0.909987414        -39.4562386
             0.193       0.912016442        -36.1915729       0.0568353728        -122.180495       0.0393764335        -117.536475        0.909977546        -39.6133196
             0.194       0.912097442        -36.4011719       0.0571700624        -122.776917       0.0396099871          -118.2816        0.909969469        -39.7714589
             0.195       0.912179035        -36.6110075       0.0574997763        -123.374306       0.0398399374        -119.027806        0.909963114        -39.9306378
             0.196       0.912261172        -36.8210784       0.0578246505        -123.972649       0.0400663769        -119.775078        0.909958411        -40.0908382
             0.197       0.912343804        -37.0313834       0.0581448172         -124.57193       0.0402893957        -120.523399        0.909955291        -40.2520429
             0.198       0.912426882        -37.2419217       0.0584604053        -125.172136       0.0405090814        -121.272756        0.909953688         -40.414235
             0.199       0.912510358        -37.4526925       0.0587715403        -125.773254       0.0407255195        -122.023135        0.909953533        -40.5773984
               0.2       0.912594184        -37.6636953       0.0590783444        -126.375271       0.0409387933        -122.774522        0.909954762        -40.7415174
             0.201       0.912678313        -37.8749298       0.0593809367        -126.978176        0.041148984        -123.526907        0.909957308         -40.906577
             0.202       0.912762698        -38.0863958       0.0596794334        -127.581957       0.0413561706        -124.280277        0.909961107        -41.0725626
             0.203       0.912847292        -38.2980933       0.0599739474        -128.186603       0.0415604303        -125.034623        0.909966095          -41.23946
             0.204        0.91293205        -38.5100225        0.060264589        -128.792103       0.0417618385        -125.789934        0.909972208        -41.4072558
             0.205       0.913016926        -38.7221836       0.0605514658         -129.39845       0.0419604685        -126.546201        0.909979385        -41.5759369
             0.206       0.913101875        -38.9345771       0.0608346825        -130.005632       0.0421563919        -127.303416        0.909987561        -41.7454904
             0.207        0.91318685        -39.1472036       0.0611143413        -130.613641       0.0423496788        -128.061571        0.909996678        -41.9159042
             0.208       0.913271809        -39.3600636       0.0613905421        -131.222468       0.0425403973        -128.820659        0.910006672        -42.0871664
             0.209       0.913356706        -39.5731579       0.0616633819        -131.832106       0.0427286141        -129.580672        0.910017484        -42.2592655
              0.21       0.913441498        -39.7864874       0.0619329559        -132.442547       0.0429143944        -130.341605        0.910029055        -42.4321906
             0.211       0.913526141        -40.0000531       0.0621993566        -133.053784       0.0430978017        -131.103451        0.910041325        -42.6059308
             0.212       0.913610591         -40.213856       0.0624626746        -133.665809       0.0432788982        -131.866206        0.910054235        -42.7804758
             0.213       0.913448595         -40.415175       0.0626617531        -134.314133       0.0434173598        -132.670361        0.909871314        -42.9815021
             0.214        0.91327662        -40.6162607       0.0628556181        -134.965199         0.04355209        -133.477638        0.909681096        -43.1843156
