! Created Tue Apr 16 20:10:19 2013
# ghz S ma R 50
! 2 Port Network Data from SP1.SP block
! freq  magS11  angS11  magS21  angS21  magS12  angS12  magS22  angS22  
!     
               0.1       0.801061405        -15.4625295       0.0225247343        -96.3292635       0.0199114983        -96.2305861         0.80581768        -18.5565389
             0.101       0.803214447        -15.5807812        0.022235604        -96.0932868       0.0195339308        -95.6697476         0.80761291        -18.6532666
             0.102       0.805328721        -15.7084638       0.0219522559        -95.8663107       0.0191651252        -95.1195561        0.809380102        -18.7595605
             0.103       0.807404784         -15.844906       0.0216745857        -95.6477887       0.0188048675        -94.5795161        0.811119442        -18.8747616
             0.104       0.809443213        -15.9894834       0.0214024877         -95.437211       0.0184529458        -94.0491686        0.812831152        -18.9982559
             0.105       0.811444602         -16.141614       0.0211358553        -95.2341016       0.0181091506        -93.5280889        0.814515482         -19.129471
             0.106       0.813409555        -16.3007564       0.0208745812        -95.0380161       0.0177732752         -93.015884        0.816172709        -19.2678736
             0.107       0.815338688         -16.466406       0.0206185582        -94.8485395       0.0174451162        -92.5121906        0.817803131        -19.4129662
             0.108       0.817232623        -16.6380928       0.0203676792        -94.6652841       0.0171244736        -92.0166732        0.819407063        -19.5642851
             0.109       0.819091983        -16.8153789       0.0201218375        -94.4878879       0.0168111509        -91.5290217        0.820984837        -19.7213979
              0.11       0.820917397        -16.9978562       0.0198809271        -94.3160125       0.0165049553        -91.0489499        0.822536797        -19.8839011
             0.111       0.822709491        -17.1851446       0.0196448428        -94.1493416       0.0162056982         -90.576194        0.824063297        -20.0514183
             0.112       0.824468888        -17.3768895       0.0194134807        -93.9875796       0.0159131947        -90.1105109        0.825564699        -20.2235985
             0.113       0.826196212        -17.5727605       0.0191867378        -93.8304503       0.0156272639        -89.6516766        0.827041372         -20.400114
             0.114       0.827892078        -17.7724497       0.0189645126        -93.6776951       0.0153477293        -89.1994853        0.828493691         -20.580659
             0.115         0.8295571          -17.97567       0.0187467049        -93.5290724       0.0150744182        -88.7537479        0.829922031        -20.7649482
             0.116       0.831191882        -18.1821535       0.0185332161        -93.3843559       0.0148071621        -88.3142907        0.831326774        -20.9527151
             0.117       0.832797022        -18.3916506       0.0183239491         -93.243334       0.0145457968        -87.8809546          0.8327083        -21.1437113
             0.118       0.834373113        -18.6039285       0.0181188085        -93.1058087        0.014290162         -87.453594        0.834066989        -21.3377044
             0.119       0.835920735        -18.8187703       0.0179177005        -92.9715944       0.0140401015        -87.0320761        0.835403223        -21.5344778
              0.12       0.837440464        -19.0359734        0.017720533        -92.8405174       0.0137954632        -86.6162794        0.836717381        -21.7338292
             0.121       0.838932864        -19.2553492       0.0175272157        -92.7124151       0.0135560989        -86.2060938        0.838009839        -21.9355696
             0.122       0.840398492        -19.4767216       0.0173376601        -92.5871348       0.0133218645        -85.8014189        0.839280973        -22.1395227
             0.123       0.842094458        -19.6876164        0.017110719        -92.4760412       0.0130989826        -85.4199697        0.840959191        -22.4060758
             0.124       0.843842585        -19.8965452       0.0168748496        -92.3706668       0.0128827824        -85.0486977        0.842744724        -22.6925117
             0.125        0.84555701        -20.1075168       0.0166437911        -92.2669988       0.0126709822        -84.6814626        0.844493652        -22.9782712
             0.126        0.84723849        -20.3203805       0.0164174284        -92.1649651       0.0124634672        -84.3182242        0.846206866        -23.2633062
             0.127       0.848887768        -20.5349948       0.0161956489        -92.0644993       0.0122601255        -83.9589478        0.847885237        -23.5475744
             0.128        0.85050557        -20.7512277       0.0159783425        -91.9655408       0.0120608479        -83.6036039        0.849529612        -23.8310386
             0.129       0.852092604        -20.9689558       0.0157654015        -91.8680337       0.0118655281        -83.2521677        0.851140817        -24.1136665
              0.13       0.853649565        -21.1880634       0.0155567205         -91.771927       0.0116740624        -82.9046185        0.852719656          -24.39543
             0.131        0.85517713        -21.4084426       0.0153521966        -91.6771738       0.0114863498        -82.5609397        0.854266914        -24.6763051
             0.132       0.856675962        -21.6299923        0.015151729        -91.5837312        0.011302292        -82.2211184        0.855783353        -24.9562714
             0.133       0.858146709        -21.8526182       0.0149552195          -91.49156       0.0111217934         -81.885145        0.857269717        -25.2353122
             0.134       0.859590001        -22.0762319       0.0147625721        -91.4006243       0.0109447608        -81.5530128        0.858726729        -25.5134136
             0.135       0.861006457         -22.300751        0.014573693        -91.3108911       0.0107711035        -81.2247181        0.860155095        -25.7905647
             0.136       0.862396678        -22.5260984       0.0143884906        -91.2223305       0.0106007335        -80.9002597          0.8615555        -26.0667571
             0.137       0.863761254        -22.7522022       0.0142068755        -91.1349148       0.0104335649        -80.5796387        0.862928613         -26.341985
             0.138       0.865100759        -22.9789951       0.0140287606        -91.0486188       0.0102695144        -80.2628585        0.864275084        -26.6162446
             0.139       0.866415752        -23.2064144       0.0138540607        -90.9634196       0.0101085009        -79.9499242        0.865595546        -26.8895342
              0.14       0.867706781        -23.4344015       0.0136826928        -90.8792958      0.00995044564        -79.6408431        0.866890615         -27.161854
             0.141        0.86897438        -23.6629018       0.0135145758        -90.7962281      0.00979527203        -79.3356238        0.868160892        -27.4332057
             0.142       0.870219069        -23.8918642       0.0133496308        -90.7141985      0.00964290564        -79.0342765         0.86940696        -27.7035927
             0.143       0.871441357        -24.1212414       0.0131877807        -90.6331907       0.0094932742        -78.7368129        0.870629389        -27.9730198
             0.144       0.872641738        -24.3509892       0.0130289503        -90.5531893      0.00934630745        -78.4432458        0.871828731        -28.2414929
             0.145        0.87381889        -24.5728695       0.0128875647         -90.505525      0.00921441889        -78.1295069        0.873017828        -28.4953057
             0.146       0.874971268        -24.7763603       0.0127821676        -90.5319138      0.00911347792         -77.762951        0.874213523        -28.7169645
             0.147        0.87610374        -24.9807751       0.0126784997        -90.5591485      0.00901393805        -77.3994288        0.875387564        -28.9388685
             0.148       0.877216728        -25.1860606        0.012576525        -90.5871882      0.00891576505        -77.0388782        0.876540436        -29.1609898
             0.149       0.878310647        -25.3921667       0.0124762082         -90.615994      0.00881892555        -76.6812379         0.87767261        -29.3833032
              0.15         0.8793859        -25.5990458       0.0123775148        -90.6455286      0.00872338709        -76.3264471        0.878784546        -29.6057851
             0.151        0.88044288        -25.8066534       0.0122804108        -90.6757563      0.00862911805        -75.9744459        0.879876694        -29.8284137
             0.152       0.881481973        -26.0149474       0.0121848632        -90.7066428      0.00853608767        -75.6251747        0.880949491        -30.0511691
             0.153       0.882503553         -26.223888       0.0120908393        -90.7381551      0.00844426601        -75.2785744        0.882003363        -30.2740329
             0.154       0.883507988        -26.4334379       0.0119983074        -90.7702617      0.00835362395        -74.9345864        0.883038727        -30.4969884
             0.155       0.884495637        -26.6435618       0.0119072361        -90.8029319      0.00826413316        -74.5931521        0.884055986          -30.72002
             0.156       0.885466848        -26.8542266       0.0118175949        -90.8361364      0.00817576608        -74.2542131        0.885055537        -30.9431136
             0.157       0.886421963        -27.0654009        0.011729354        -90.8698467      0.00808849593        -73.9177114        0.886037764        -31.1662564
             0.158       0.887361317        -27.2770554       0.0116424838        -90.9040353      0.00800229665        -73.5835888        0.887003044        -31.3894368
             0.159       0.888285233        -27.4891623       0.0115569559        -90.9386756      0.00791714292        -73.2517872        0.887951741        -31.6126439
              0.16       0.889194031        -27.7016956        0.011472742        -90.9737418      0.00783301014        -72.9222483        0.888884213        -31.8358684
             0.161       0.890088021        -27.9146308       0.0113898146        -91.0092088      0.00774987439        -72.5949138        0.889800809        -32.0591016
             0.162       0.890967505        -28.1279448       0.0113081468        -91.0450521      0.00766771243        -72.2697252        0.890701866        -32.2823358
             0.163        0.89183278        -28.3416159       0.0112277122        -91.0812481       0.0075865017        -71.9466236        0.891587716         -32.505564
             0.164       0.892684134        -28.5556239       0.0111484851        -91.1177733      0.00750622027        -71.6255501        0.892458682        -32.7287803
             0.165       0.893521849        -28.7699496       0.0110704401        -91.1546053      0.00742684685        -71.3064452        0.893315078        -32.9519792
             0.166       0.894346202         -28.984575       0.0109935526        -91.1917217      0.00734836078         -70.989249         0.89415721        -33.1751562
             0.167       0.895157461        -29.1994834       0.0109177983        -91.2291009      0.00727074197        -70.6739014        0.894985379        -33.3983072
             0.168        0.89587932        -29.3924154       0.0108590612        -91.6765307      0.00718118514        -70.7418539        0.895668389        -33.5477588
             0.169       0.896576965         -29.582163       0.0108039927        -92.1959455      0.00709078099         -70.880497        0.896318657        -33.6857723
              0.17       0.897264258        -29.7726641       0.0107497487        -92.7149496      0.00700180379        -71.0226077        0.896959857        -33.8254323
             0.171       0.897941391        -29.9638924       0.0106963114        -93.2335128      0.00691422451        -71.1681585         0.89759214        -33.9666934
             0.172       0.898608551        -30.1558228       0.0106436631        -93.7516068      0.00682801479        -71.3171225        0.898215655        -34.1095115
             0.173       0.899265922        -30.3484312       0.0105917865         -94.269205      0.00674314687        -71.4694739        0.898830547        -34.2538443
             0.174       0.899913683        -30.5416948       0.0105406645        -94.7862824      0.00665959361        -71.6251876        0.899436958        -34.3996513
             0.175        0.90055201        -30.7355918       0.0104902806        -95.3028157      0.00657732847        -71.7842391         0.90003503        -34.5468931
             0.176       0.901181074        -30.9301015       0.0104406182         -95.818783       0.0064963255        -71.9466048        0.900624901         -34.695532
             0.177       0.901801044        -31.1252041       0.0103916612         -96.334164      0.00641655931        -72.1122616        0.901206704        -34.8455317
             0.178       0.902412084        -31.3208807       0.0103433938        -96.8489399      0.00633800509        -72.2811868        0.901780574        -34.9968571
             0.179       0.903014354        -31.5171134       0.0102958003        -97.3630934      0.00626063856        -72.4533587        0.902346641        -35.1494745
              0.18       0.903608013        -31.7138851       0.0102488656        -97.8766083      0.00618443597        -72.6287557        0.902905033        -35.3033515
             0.181       0.904193214        -31.9111795       0.0102025746        -98.3894699       0.0061093741        -72.8073568        0.903455875        -35.4584566
             0.182       0.904770108        -32.1089811       0.0101569125        -98.9016648      0.00603543024        -72.9891417         0.90399929        -35.6147598
             0.183       0.905338843         -32.307275        0.010111865        -99.4131808      0.00596258218          -73.17409          0.9045354         -35.772232
             0.184       0.905899562        -32.5060473       0.0100674176        -99.9240069      0.00589080817        -73.3621821        0.905064323         -35.930845
             0.185       0.906452406        -32.7052845       0.0100235566        -100.434133      0.00582008697        -73.5533986        0.905586175         -36.090572
             0.186       0.906997515        -32.9049739      0.00998026816        -100.943551      0.00575039777        -73.7477205        0.906101071        -36.2513869
             0.187       0.907535023        -33.1051034      0.00993753886        -101.452253      0.00568172024        -73.9451289        0.906609124        -36.4132645
             0.188       0.908065062        -33.3056614      0.00989535549        -101.960233      0.00561403447        -74.1456054        0.907110441        -36.5761807
             0.189       0.908587762        -33.5066369      0.00985370507        -102.467485      0.00554732097        -74.3491317        0.907605133        -36.7401122
              0.19       0.909064422        -33.7044753      0.00981886948        -103.252389      0.00546150208        -75.2650427        0.908009226        -36.8929341
             0.191       0.909476922        -33.8974986      0.00979348993        -104.452624      0.00534674019        -77.2346277         0.90828316        -37.0288995
             0.192       0.909884097        -34.0910562      0.00976789747         -105.65003       0.0052331252        -79.1875865        0.908554109        -37.1662724
             0.193        0.91028602        -34.2851359      0.00974207637        -106.844686      0.00512055489        -81.1232388        0.908822096        -37.3050231
             0.194       0.910682769        -34.4797261      0.00971601147        -108.036672      0.00500893111         -83.040891        0.909087143        -37.4451223
             0.195       0.911074415        -34.6748157      0.00968968823        -109.226073      0.00489815988        -84.9398316         0.90934927         -37.586542
             0.196       0.911461031        -34.8703939      0.00966309268        -110.412973      0.00478815146        -86.8193256          0.9096085         -37.729255
             0.197       0.911842687        -35.0664506      0.00963621144        -111.597459      0.00467882037        -88.6786092        0.909864855        -37.8732347
             0.198       0.912219453         -35.262976      0.00960903171         -112.77962      0.00457008549        -90.5168822        0.910118355        -38.0184555
             0.199       0.912591396        -35.4599607      0.00958154126        -113.959548       0.0044618701        -92.3333007        0.910369022        -38.1648925
               0.2       0.912958582        -35.6573957      0.00955372841        -115.137334      0.00435410189        -94.1269679        0.910616877        -38.3125215
             0.201       0.913321078        -35.8552724      0.00952558206        -116.313073      0.00424671305        -95.8969237        0.910861941        -38.4613192
             0.202       0.913678947        -36.0535827      0.00949709163        -117.486861       0.0041396403        -97.6421332        0.911104236        -38.6112627
             0.203       0.914032252        -36.2523185      0.00946824713        -118.658793      0.00403282496        -99.3614727        0.911343781        -38.7623301
             0.204       0.914381056        -36.4514725      0.00943903907        -119.828971      0.00392621298        -101.053715        0.911580599        -38.9144999
             0.205       0.914725419        -36.6510373      0.00940945851        -120.997493      0.00381975503        -102.717509        0.911814709        -39.0677514
             0.206       0.915065401        -36.8510061      0.00937949704        -122.164462       0.0037134066        -104.351361        0.912046134        -39.2220645
             0.207       0.915401062        -37.0513724      0.00934914678        -123.329982      0.00360712807        -105.953609        0.912274893        -39.3774195
             0.208       0.915732459        -37.2521298      0.00931840035        -124.494156      0.00350088487        -107.522394        0.912501008        -39.5337975
             0.209       0.916059649        -37.4532723       0.0092872509        -125.657092      0.00339464764        -109.055623        0.912724499        -39.6911801
              0.21       0.916382689        -37.6547941      0.00925569209        -126.818898      0.00328839243        -110.550933        0.912945387        -39.8495494
             0.211       0.916701634        -37.8566899      0.00922371806        -127.979682      0.00318210098        -112.005637        0.913163693        -40.0088881
             0.212       0.917016538        -38.0589545      0.00919132348        -129.139556      0.00307576101        -113.416671        0.913379438        -40.1691793
             0.213       0.917159906        -38.2628262      0.00915718982         -130.95921      0.00331416042        -115.483211        0.913587965        -40.3703932
             0.214        0.91729313        -38.4670968      0.00912131506         -132.81312      0.00356265521        -118.149113         0.91379388         -40.574074
