! Created Tue Apr 16 20:10:52 2013
# ghz S ma R 50
! 2 Port Network Data from SP1.SP block
! freq  magS11  angS11  magS21  angS21  magS12  angS12  magS22  angS22  
!     
               0.1       0.800082861        -15.2427777       0.0164581216        -101.025365       0.0160250681        -100.039343        0.803656858        -18.2081766
             0.101       0.802164053        -15.3692734       0.0159726315        -100.784019       0.0155220469        -99.7833156        0.805449358         -18.298616
             0.102       0.804208545        -15.5049334       0.0154999945        -100.553074       0.0150324771        -99.5381388        0.807214189        -18.3989135
             0.103       0.806216844        -15.6490966       0.0150398589        -100.332098       0.0145559863        -99.3034178        0.808951519        -18.5083978
             0.104        0.80818948        -15.8011478       0.0145918799        -100.120702       0.0140922099        -99.0788057        0.810661556        -18.6264431
             0.105       0.810126998        -15.9605144       0.0141557193        -99.9185379       0.0136407902        -98.8640017        0.812344537        -18.7524656
             0.106       0.812029953        -16.1266638       0.0137310461        -99.7252996       0.0132013778        -98.6587498        0.814000723         -18.885921
             0.107       0.813898914        -16.2990997        0.013317537        -99.5407191       0.0127736311        -98.4628374        0.815630399        -19.0263014
             0.108       0.815734453        -16.4773602       0.0129148757        -99.3645655       0.0123572166         -98.276095        0.817233871        -19.1731332
             0.109       0.817537147        -16.6610152       0.0125227537        -99.1966443       0.0119518091         -98.098395        0.818811456        -19.3259742
              0.11       0.819307578        -16.8496641       0.0121408703        -99.0367957       0.0115570915        -97.9296519        0.820363488        -19.4844118
             0.111       0.821046323        -17.0429338        0.011768932        -98.8848945        0.011172755        -97.7698219         0.82189031        -19.6480607
             0.112       0.822753964        -17.2404766       0.0114066534        -98.7408491       0.0107984991        -97.6189034        0.823392275        -19.8165615
             0.113       0.824431076        -17.4419688       0.0110537564        -98.6046011       0.0104340312        -97.4769376        0.824869741        -19.9895784
             0.114       0.826078232        -17.6471086       0.0107099704        -98.4761252       0.0100790671        -97.3440092        0.826323072        -20.1667978
             0.115       0.827696002        -17.8556149       0.0103750323         -98.355429      0.00973333041        -97.2202479        0.827752638         -20.347927
             0.116       0.829284947        -18.0672259       0.0100486864        -98.2425534      0.00939655266        -97.1058303        0.829158808        -20.5326924
             0.117       0.830845625        -18.2816974       0.0097306842         -98.137573      0.00906847324        -97.0009814        0.830541955        -20.7208386
             0.118       0.832378587         -18.498802      0.00942078428        -98.0405965      0.00874883918        -96.9059776        0.831902452         -20.912127
             0.119       0.833884375        -18.7183277      0.00911875229         -97.951768       0.0084374051        -96.8211501        0.833240671        -21.1063344
              0.12       0.835363524        -18.9400772      0.00882436073        -97.8712676      0.00813393304         -96.746888        0.834556983        -21.3032527
             0.121       0.836816562        -19.1638665       0.0085373889        -97.7993135      0.00783819239        -96.6836435        0.835851759        -21.5026872
             0.122       0.838244009        -19.3895241       0.0082576227        -97.7361633      0.00754995972        -96.6319363        0.837125365        -21.7044559
             0.123       0.839864341        -19.5898853      0.00796610379        -95.4652708      0.00729141418        -93.9471181        0.838748516        -21.9660779
             0.124        0.84152701        -19.7837569       0.0076708649        -92.5047801      0.00703997594        -90.4356036         0.84046239        -22.2468328
             0.125       0.843159113        -19.9801008      0.00737744735        -89.6014876      0.00678710552        -86.9860361        0.842142482        -22.5271176
             0.126       0.844761222        -20.1787496      0.00708579448        -86.7580424      0.00653285333        -83.5995436        0.843789503         -22.806874
             0.127       0.846333903        -20.3795473      0.00679588513         -83.977531      0.00627731463         -80.277587        0.845404153        -23.0860508
             0.128       0.847877714        -20.5823483      0.00650773341        -81.2635723       0.0060206273        -77.0220387         0.84698712        -23.3646031
             0.129        0.84939321        -20.7870168      0.00622138864        -78.6204336      0.00576296978        -73.8352765        0.848539083        -23.6424918
              0.13       0.850880943        -20.9934262      0.00593693553        -76.0531729      0.00550455914        -70.7202986         0.85006071        -23.9196831
             0.131       0.852341462        -21.2014581      0.00565449483        -73.5678154      0.00524564933        -67.6808662        0.851552664        -24.1961479
             0.132       0.853775312        -21.4110019      0.00537422455        -71.1715723      0.00498652981        -64.7216823        0.853015597        -24.4718614
             0.133       0.855183037        -21.6219542      0.00509632181        -68.8731179      0.00472752463        -61.8486194        0.854450157        -24.7468026
             0.134       0.856565176        -21.8342182      0.00482102578        -66.6829384      0.00446899196        -59.0690125        0.855856982        -25.0209539
             0.135       0.857922265        -22.0477032      0.00454862196        -64.6137787      0.00421132455        -56.3920417        0.857236703        -25.2943009
             0.136       0.859254838        -22.2623242      0.00427944818        -62.6812152      0.00395495108        -53.8292367        0.858589942        -25.5668316
             0.137        0.86056342        -22.4780014      0.00401390319        -60.9043953      0.00370033912        -51.3951513        0.859917311        -25.8385366
             0.138       0.861848533        -22.6946598      0.00375245857        -59.3069958      0.00344799995        -49.1082755        0.861219415        -26.1094088
             0.139        0.86311069        -22.9122291      0.00349567539        -57.9184678      0.00319849649        -46.9922845        0.862496844        -26.3794426
              0.14       0.864350397        -23.1306428      0.00324422734        -56.7756453      0.00295245531        -45.0777702        0.863750179        -26.6486345
             0.141        0.86556815        -23.3498388      0.00299893306        -55.9248071      0.00271058512        -43.4046689        0.864979989        -26.9169824
             0.142       0.866764438        -23.5697583      0.00276080094        -55.4242552      0.00247370464        -42.0256967        0.866186827        -27.1844856
             0.143       0.867939736        -23.7903461      0.00253109112        -55.3473875      0.00224278539        -41.0112401        0.867371235        -27.4511446
             0.144        0.86909451        -24.0115503       0.0023113999        -55.7859891      0.00201901706        -40.4563024         0.86853374        -27.7169613
             0.145       0.870230634        -24.2251113      0.00219713873        -54.8110416       0.0019088722        -38.3187832        0.869698822        -27.9662995
             0.146       0.871350752        -24.4204727      0.00230443269        -49.4991594       0.0020522766        -31.8497446        0.870898401        -28.1791934
             0.147       0.872452107        -24.6169687      0.00240982868        -44.4261596      0.00220151279        -26.0401273        0.872076736        -28.3925797
             0.148       0.873535071        -24.8145384      0.00251303622        -39.5468664      0.00235433371        -20.7680799        0.873234279        -28.6064217
             0.149       0.874600012        -25.0131244      0.00261392943        -34.8249311      0.00250913057        -15.9331301        0.874371471        -28.8206849
              0.15       0.875647282        -25.2126725      0.00271250744        -30.2310958      0.00266476174        -11.4543946        0.875488739        -29.0353377
             0.151       0.876677227        -25.4131317      0.00280886494        -25.7417973      0.00282042501        -7.26743173        0.876586499        -29.2503503
             0.152       0.877690186        -25.6144538      0.00290317003        -21.3380658      0.00297556486         -3.3210407        0.877665158        -29.4656953
             0.153       0.878686486        -25.8165934      0.00299564714        -17.0046613       0.0031298058        0.425520355         0.87872511        -29.6813472
             0.154       0.879666448        -26.0195077      0.00308656368        -12.7293977      0.00328290445         4.00479708        0.879766742        -29.8972826
             0.155       0.880630387        -26.2231564      0.00317621925         -8.5026108      0.00343471494         7.44292061        0.880790428        -30.1134796
             0.156        0.88157861        -26.4275017      0.00326493676         -4.3167376      0.00358516367         10.7609901        0.881796536        -30.3299183
             0.157       0.882511417        -26.6325077       0.0033530549       -0.165978459      0.00373423075         13.9761391        0.882785426        -30.5465802
             0.158       0.883429102         -26.838141      0.00344092162          3.9539773      0.00388193622         17.1023587        0.883757449        -30.7634483
             0.159       0.884331955          -27.04437      0.00352888836         8.04617871      0.00402832966          20.151133        0.884712947        -30.9805071
              0.16        0.88522026        -27.2511648       0.0036173049         12.1126052      0.00417348224         23.1319344        0.885652259        -31.1977424
             0.161       0.886094294        -27.4584978      0.00370651469         16.1543321      0.00431748068         26.0526093        0.886575713         -31.415141
             0.162       0.886954333        -27.6663425      0.00379685068         20.1716769      0.00446042251          28.919683        0.887483635        -31.6326912
             0.163       0.887800645        -27.8746742      0.00388863149          24.164329      0.00460241235         31.7386003         0.88837634        -31.8503821
             0.164       0.888633496        -28.0834699      0.00398215803         28.1314691      0.00474355895          34.513918        0.889254142        -32.0682038
             0.165       0.889453148        -28.2927077      0.00407771061         32.0718769       0.0048839729         37.2494595        0.890117346        -32.2861475
             0.166       0.890259857         -28.502367      0.00417554636         35.9840308       0.0050237647           39.94844        0.890966253         -32.504205
             0.167       0.891053877        -28.7124285      0.00427589723         39.8661992      0.00516304325         42.6135682         0.89180116        -32.7223691
             0.168       0.891781121        -28.8971877       0.0044627543         41.1146791      0.00536350153         43.4846306        0.892485022         -32.863051
             0.169       0.892488145        -29.0783337      0.00466147804         41.8618192      0.00557140201         44.0180954        0.893135309        -32.9917873
              0.17       0.893184856        -29.2604125      0.00485687399         42.5718024      0.00577570307         44.5285022        0.893776736         -33.122353
             0.171        0.89387144        -29.4433929      0.00504900381         43.2496694      0.00597648405         45.0186544        0.894409444        -33.2546977
             0.172       0.894548077        -29.6272449      0.00523793226         43.8995772      0.00617382451         45.4909089        0.895033571        -33.3887729
             0.173       0.895214945          -29.81194      0.00542372616         44.5249844      0.00636780379         45.9472611        0.895649254        -33.5245316
             0.174       0.895872217         -29.997451      0.00560645358         45.1287914      0.00655850071         46.3894122        0.896256627        -33.6619288
             0.175       0.896520063        -30.1837518      0.00578618324         45.7134487      0.00674599335         46.8188215        0.896855821         -33.800921
             0.176        0.89715865        -30.3708174      0.00596298405         46.2810407      0.00693035882         47.2367476        0.897446966        -33.9414663
             0.177       0.897788142        -30.5586239      0.00613692481          46.833351      0.00711167316         47.6442822         0.89803019        -34.0835243
             0.178       0.898408698        -30.7471486      0.00630807385         47.3719153      0.00729001125         48.0423767        0.898605619         -34.227056
             0.179       0.899020475        -30.9363696      0.00647649894         47.8980623      0.00746544671         48.4318643        0.899173374        -34.3720238
              0.18       0.899623625        -31.1262661      0.00664226704         48.4129477      0.00763805186         48.8134772        0.899733578        -34.5183914
             0.181         0.9002183        -31.3168181      0.00680544424         48.9175811      0.00780789769          49.187862        0.900286349        -34.6661239
             0.182       0.900804645        -31.5080066      0.00696609563         49.4128485       0.0079750538         49.5555917        0.900831805        -34.8151875
             0.183       0.901382806        -31.6998133      0.00712428526         49.8995302      0.00813958846         49.9171756         0.90137006        -34.9655498
             0.184       0.901952923        -31.8922209      0.00728007608         50.3783162      0.00830156854         50.2730682        0.901901227        -35.1171792
             0.185       0.902515134        -32.0852127       0.0074335299         50.8498188      0.00846105952         50.6236759        0.902425418        -35.2700455
             0.186       0.903069575        -32.2787727      0.00758470738          51.314583      0.00861812553         50.9693636        0.902942741        -35.4241193
             0.187       0.903616378        -32.4728858      0.00773366798         51.7730952      0.00877282935         51.3104596        0.903453303        -35.5793726
             0.188       0.904155672        -32.6675374         0.00788047          52.225791      0.00892523237         51.6472598        0.903957209         -35.735778
             0.189       0.904687586        -32.8627135      0.00802517054         52.6730616      0.00907539471         51.9800318        0.904454563        -35.8933092
              0.19       0.905209035        -33.0541261      0.00818599764         53.0433504      0.00923794044         52.2868428        0.904909377        -36.0381392
             0.191        0.90571871        -33.2397484      0.00837163844         53.3005661       0.0094198844         52.5562109        0.905304875        -36.1637083
             0.192        0.90622161        -33.4260307      0.00855470096         53.5527454      0.00959930034         52.8214005        0.905695762        -36.2908429
             0.193       0.906717846        -33.6129573      0.00873524643         53.8002382      0.00977624937         53.0826669        0.906082095        -36.4195092
             0.194       0.907207527        -33.8005132      0.00891333483         54.0433577      0.00995079135         53.3402411        0.906463931        -36.5496744
             0.195       0.907690757        -33.9886841      0.00908902495         54.2823853       0.0101229849         53.5943326        0.906841327        -36.6813065
             0.196       0.908167641        -34.1774563      0.00926237435         54.5175742       0.0102928874          53.845132        0.907214338        -36.8143749
             0.197        0.90863828        -34.3668165      0.00943343946         54.7491533        0.010460555         54.0928131        0.907583019        -36.9488494
             0.198       0.909102776        -34.5567519      0.00960227551         54.9773297       0.0106260428         54.3375344        0.907947424         -37.084701
             0.199       0.909561225        -34.7472505       0.0097689366         55.2022915       0.0107894046         54.5794413        0.908307607        -37.2219017
               0.2       0.910013723        -34.9383006      0.00993347572         55.4242098       0.0109506931         54.8186667         0.90866362        -37.3604239
             0.201       0.910460365        -35.1298908       0.0100959447         55.6432405         0.01110996         55.0553331        0.909015515        -37.5002414
             0.202       0.910901243        -35.3220105       0.0102563944          55.859526       0.0112672557         55.2895527        0.909363343        -37.6413282
             0.203       0.911336446        -35.5146493       0.0104148745         56.0731968       0.0114226297         55.5214292        0.909707156        -37.7836595
             0.204       0.911766065        -35.7077973       0.0105714337         56.2843723       0.0115761304         55.7510583        0.910047001         -37.927211
             0.205       0.912190184         -35.901445       0.0107261197         56.4931625       0.0117278051         55.9785281         0.91038293        -38.0719592
             0.206        0.91260889        -36.0955833       0.0108789791         56.6996682       0.0118777002         56.2039203        0.910714989        -38.2178814
             0.207       0.913022266        -36.2902034       0.0110300577         56.9039826       0.0120258611         56.4273105        0.911043227        -38.3649553
             0.208       0.913430394        -36.4852971          0.0111794         57.1061914       0.0121723323         56.6487689         0.91136769        -38.5131595
             0.209       0.913833354        -36.6808561         0.01132705         57.3063739        0.012317157         56.8683604        0.911688425        -38.6624732
              0.21       0.914231224         -36.876873       0.0114730505         57.5046035        0.012460378         57.0861455        0.912005477        -38.8128761
             0.211       0.914624083        -37.0733402       0.0116174434          57.700948       0.0126020369         57.3021804        0.912318891        -38.9643484
             0.212       0.915012004        -37.2702508       0.0117602698         57.8954704       0.0127421743         57.5165173        0.912628711        -39.1168713
             0.213       0.915303597        -37.4630216       0.0119546608          57.986911       0.0129465991         57.5960643        0.912864776        -39.3048827
             0.214       0.915586838        -37.6560427       0.0121496041         58.0714114        0.013152115         57.6671219        0.913094235        -39.4952527
